 v-sweep         dc1.v(Vout)     v-sweep         dc2.v(Vout)     v-sweep         dc3.v(Vout)    
 0.00000000e+00  4.15245324e-04  0.00000000e+00  1.06913556e-06  0.00000000e+00  7.21801845e-07 
 1.00000000e-03  4.24324111e-04  1.00000000e-03  1.08200134e-06  1.00000000e-03  7.21798020e-07 
 2.00000000e-03  4.33576226e-04  2.00000000e-03  1.09186433e-06  2.00000000e-03  7.21643995e-07 
 3.00000000e-03  4.43008265e-04  3.00000000e-03  1.10492438e-06  3.00000000e-03  7.21160908e-07 
 4.00000000e-03  4.52620926e-04  4.00000000e-03  1.11781674e-06  4.00000000e-03  7.21546991e-07 
 5.00000000e-03  4.62416053e-04  5.00000000e-03  1.13043950e-06  5.00000000e-03  7.21527546e-07 
 6.00000000e-03  4.72397325e-04  6.00000000e-03  1.14429792e-06  6.00000000e-03  7.21462788e-07 
 7.00000000e-03  4.82569783e-04  7.00000000e-03  1.15942705e-06  7.00000000e-03  7.21275358e-07 
 8.00000000e-03  4.92934389e-04  8.00000000e-03  1.17341861e-06  8.00000000e-03  7.22786641e-07 
 9.00000000e-03  5.03496611e-04  9.00000000e-03  1.18821738e-06  9.00000000e-03  7.22395187e-07 
 1.00000000e-02  5.14256914e-04  1.00000000e-02  1.20361337e-06  1.00000000e-02  7.22142477e-07 
 1.10000000e-02  5.25220462e-04  1.10000000e-02  1.22040862e-06  1.10000000e-02  7.22359807e-07 
 1.20000000e-02  5.36391840e-04  1.20000000e-02  1.23753617e-06  1.20000000e-02  7.22612548e-07 
 1.30000000e-02  5.47771001e-04  1.30000000e-02  1.25314727e-06  1.30000000e-02  7.22202266e-07 
 1.40000000e-02  5.59363381e-04  1.40000000e-02  1.27164525e-06  1.40000000e-02  7.22778531e-07 
 1.50000000e-02  5.71174593e-04  1.50000000e-02  1.28975941e-06  1.50000000e-02  7.22407858e-07 
 1.60000000e-02  5.83204619e-04  1.60000000e-02  1.30800786e-06  1.60000000e-02  7.22257776e-07 
 1.70000000e-02  5.95459936e-04  1.70000000e-02  1.32801216e-06  1.70000000e-02  7.23087569e-07 
 1.80000000e-02  6.07941851e-04  1.80000000e-02  1.34709895e-06  1.80000000e-02  7.22269086e-07 
 1.90000000e-02  6.20655116e-04  1.90000000e-02  1.36889025e-06  1.90000000e-02  7.22096252e-07 
 2.00000000e-02  6.33603862e-04  2.00000000e-02  1.39040970e-06  2.00000000e-02  7.22615491e-07 
 2.10000000e-02  6.46793204e-04  2.10000000e-02  1.41264094e-06  2.10000000e-02  7.23389355e-07 
 2.20000000e-02  6.60224374e-04  2.20000000e-02  1.43434653e-06  2.20000000e-02  7.23465588e-07 
 2.30000000e-02  6.73905153e-04  2.30000000e-02  1.45871912e-06  2.30000000e-02  7.22417750e-07 
 2.40000000e-02  6.87836359e-04  2.40000000e-02  1.48250532e-06  2.40000000e-02  7.22211584e-07 
 2.50000000e-02  7.02023775e-04  2.50000000e-02  1.50750863e-06  2.50000000e-02  7.23671693e-07 
 2.60000000e-02  7.16472243e-04  2.60000000e-02  1.53377440e-06  2.60000000e-02  7.23301944e-07 
 2.70000000e-02  7.31183506e-04  2.70000000e-02  1.56024521e-06  2.70000000e-02  7.23081469e-07 
 2.80000000e-02  7.46164097e-04  2.80000000e-02  1.58663598e-06  2.80000000e-02  7.23385975e-07 
 2.90000000e-02  7.61418998e-04  2.90000000e-02  1.61698439e-06  2.90000000e-02  7.23035144e-07 
 3.00000000e-02  7.76951548e-04  3.00000000e-02  1.64485536e-06  3.00000000e-02  7.23022101e-07 
 3.10000000e-02  7.92766096e-04  3.10000000e-02  1.67567749e-06  3.10000000e-02  7.23595387e-07 
 3.20000000e-02  8.08868993e-04  3.20000000e-02  1.70606759e-06  3.20000000e-02  7.23932766e-07 
 3.30000000e-02  8.25263927e-04  3.30000000e-02  1.73884794e-06  3.30000000e-02  7.24160908e-07 
 3.40000000e-02  8.41955886e-04  3.40000000e-02  1.77286853e-06  3.40000000e-02  7.23977382e-07 
 3.50000000e-02  8.58949635e-04  3.50000000e-02  1.80621631e-06  3.50000000e-02  7.23033144e-07 
 3.60000000e-02  8.76252093e-04  3.60000000e-02  1.84230714e-06  3.60000000e-02  7.24380854e-07 
 3.70000000e-02  8.93866858e-04  3.70000000e-02  1.87852331e-06  3.70000000e-02  7.23636034e-07 
 3.80000000e-02  9.11798324e-04  3.80000000e-02  1.91539135e-06  3.80000000e-02  7.24266386e-07 
 3.90000000e-02  9.30052792e-04  3.90000000e-02  1.95398620e-06  3.90000000e-02  7.24643245e-07 
 4.00000000e-02  9.48636670e-04  4.00000000e-02  1.99493575e-06  4.00000000e-02  7.24649588e-07 
 4.10000000e-02  9.67556365e-04  4.10000000e-02  2.03494602e-06  4.10000000e-02  7.24734814e-07 
 4.20000000e-02  9.86814681e-04  4.20000000e-02  2.07767810e-06  4.20000000e-02  7.24260003e-07 
 4.30000000e-02  1.00641831e-03  4.30000000e-02  2.12167193e-06  4.30000000e-02  7.24531834e-07 
 4.40000000e-02  1.02637401e-03  4.40000000e-02  2.16744166e-06  4.40000000e-02  7.25083784e-07 
 4.50000000e-02  1.04668661e-03  4.50000000e-02  2.21384022e-06  4.50000000e-02  7.25178803e-07 
 4.60000000e-02  1.06736364e-03  4.60000000e-02  2.26192178e-06  4.60000000e-02  7.24790395e-07 
 4.70000000e-02  1.08841080e-03  4.70000000e-02  2.31126189e-06  4.70000000e-02  7.24968039e-07 
 4.80000000e-02  1.10983428e-03  4.80000000e-02  2.36347840e-06  4.80000000e-02  7.25269465e-07 
 4.90000000e-02  1.13164119e-03  4.90000000e-02  2.41546776e-06  4.90000000e-02  7.25394804e-07 
 5.00000000e-02  1.15383628e-03  5.00000000e-02  2.47021331e-06  5.00000000e-02  7.24552706e-07 
 5.10000000e-02  1.17642831e-03  5.10000000e-02  2.52713135e-06  5.10000000e-02  7.25390994e-07 
 5.20000000e-02  1.19942203e-03  5.20000000e-02  2.58414495e-06  5.20000000e-02  7.25668435e-07 
 5.30000000e-02  1.22282666e-03  5.30000000e-02  2.64389912e-06  5.30000000e-02  7.25445478e-07 
 5.40000000e-02  1.24664814e-03  5.40000000e-02  2.70520444e-06  5.40000000e-02  7.25429434e-07 
 5.50000000e-02  1.27089356e-03  5.50000000e-02  2.76891777e-06  5.50000000e-02  7.25685817e-07 
 5.60000000e-02  1.29557193e-03  5.60000000e-02  2.83431326e-06  5.60000000e-02  7.25809044e-07 
 5.70000000e-02  1.32068894e-03  5.70000000e-02  2.90300027e-06  5.70000000e-02  7.26161783e-07 
 5.80000000e-02  1.34625261e-03  5.80000000e-02  2.97152681e-06  5.80000000e-02  7.25368182e-07 
 5.90000000e-02  1.37227028e-03  5.90000000e-02  3.04451408e-06  5.90000000e-02  7.25893675e-07 
 6.00000000e-02  1.39875178e-03  6.00000000e-02  3.11721723e-06  6.00000000e-02  7.26789852e-07 
 6.10000000e-02  1.42570288e-03  6.10000000e-02  3.19385496e-06  6.10000000e-02  7.26256885e-07 
 6.20000000e-02  1.45313356e-03  6.20000000e-02  3.27308173e-06  6.20000000e-02  7.26677273e-07 
 6.30000000e-02  1.48105187e-03  6.30000000e-02  3.35296729e-06  6.30000000e-02  7.26285785e-07 
 6.40000000e-02  1.50946586e-03  6.40000000e-02  3.43784549e-06  6.40000000e-02  7.26353099e-07 
 6.50000000e-02  1.53838539e-03  6.50000000e-02  3.52343773e-06  6.50000000e-02  7.26617851e-07 
 6.60000000e-02  1.56781767e-03  6.60000000e-02  3.61162452e-06  6.60000000e-02  7.27279016e-07 
 6.70000000e-02  1.59777500e-03  6.70000000e-02  3.70272305e-06  6.70000000e-02  7.27365274e-07 
 6.80000000e-02  1.62826351e-03  6.80000000e-02  3.79693408e-06  6.80000000e-02  7.27546911e-07 
 6.90000000e-02  1.65929339e-03  6.90000000e-02  3.89430065e-06  6.90000000e-02  7.27660810e-07 
 7.00000000e-02  1.69087473e-03  7.00000000e-02  3.99491377e-06  7.00000000e-02  7.27814392e-07 
 7.10000000e-02  1.72301741e-03  7.10000000e-02  4.09687400e-06  7.10000000e-02  7.27741228e-07 
 7.20000000e-02  1.75573165e-03  7.20000000e-02  4.20374630e-06  7.20000000e-02  7.27839955e-07 
 7.30000000e-02  1.78902840e-03  7.30000000e-02  4.31313656e-06  7.30000000e-02  7.28178582e-07 
 7.40000000e-02  1.82291758e-03  7.40000000e-02  4.42474616e-06  7.40000000e-02  7.27890178e-07 
 7.50000000e-02  1.85740962e-03  7.50000000e-02  4.54165815e-06  7.50000000e-02  7.28497704e-07 
 7.60000000e-02  1.89251558e-03  7.60000000e-02  4.66140350e-06  7.60000000e-02  7.28062373e-07 
 7.70000000e-02  1.92824753e-03  7.70000000e-02  4.78525827e-06  7.70000000e-02  7.28181096e-07 
 7.80000000e-02  1.96461491e-03  7.80000000e-02  4.91153813e-06  7.80000000e-02  7.28711399e-07 
 7.90000000e-02  2.00163171e-03  7.90000000e-02  5.04272084e-06  7.90000000e-02  7.28527367e-07 
 8.00000000e-02  2.03930823e-03  8.00000000e-02  5.17612221e-06  8.00000000e-02  7.29179304e-07 
 8.10000000e-02  2.07765718e-03  8.10000000e-02  5.31657621e-06  8.10000000e-02  7.28528905e-07 
 8.20000000e-02  2.11669146e-03  8.20000000e-02  5.45936056e-06  8.20000000e-02  7.28542525e-07 
 8.30000000e-02  2.15642353e-03  8.30000000e-02  5.60776150e-06  8.30000000e-02  7.28687433e-07 
 8.40000000e-02  2.19686512e-03  8.40000000e-02  5.75949748e-06  8.40000000e-02  7.28897359e-07 
 8.50000000e-02  2.23803048e-03  8.50000000e-02  5.91413496e-06  8.50000000e-02  7.28977840e-07 
 8.60000000e-02  2.27993358e-03  8.60000000e-02  6.07514905e-06  8.60000000e-02  7.29639902e-07 
 8.70000000e-02  2.32258785e-03  8.70000000e-02  6.24073199e-06  8.70000000e-02  7.29292355e-07 
 8.80000000e-02  2.36600714e-03  8.80000000e-02  6.41141791e-06  8.80000000e-02  7.29520018e-07 
 8.90000000e-02  2.41020555e-03  8.90000000e-02  6.58715081e-06  8.90000000e-02  7.30491666e-07 
 9.00000000e-02  2.45519806e-03  9.00000000e-02  6.76794008e-06  9.00000000e-02  7.29748274e-07 
 9.10000000e-02  2.50100081e-03  9.10000000e-02  6.95443933e-06  9.10000000e-02  7.30155117e-07 
 9.20000000e-02  2.54762828e-03  9.20000000e-02  7.14510834e-06  9.20000000e-02  7.30115171e-07 
 9.30000000e-02  2.59509523e-03  9.30000000e-02  7.34290131e-06  9.30000000e-02  7.29869727e-07 
 9.40000000e-02  2.64341859e-03  9.40000000e-02  7.54620169e-06  9.40000000e-02  7.29888393e-07 
 9.50000000e-02  2.69261658e-03  9.50000000e-02  7.75483498e-06  9.50000000e-02  7.30844929e-07 
 9.60000000e-02  2.74270294e-03  9.60000000e-02  7.97127718e-06  9.60000000e-02  7.30774336e-07 
 9.70000000e-02  2.79369750e-03  9.70000000e-02  8.19210674e-06  9.70000000e-02  7.30089376e-07 
 9.80000000e-02  2.84561653e-03  9.80000000e-02  8.42007635e-06  9.80000000e-02  7.31172255e-07 
 9.90000000e-02  2.89847740e-03  9.90000000e-02  8.65413028e-06  9.90000000e-02  7.31224286e-07 
 1.00000000e-01  2.95229983e-03  1.00000000e-01  8.89614267e-06  1.00000000e-01  7.31908906e-07 
 1.01000000e-01  3.00710289e-03  1.01000000e-01  9.14475058e-06  1.01000000e-01  7.31001514e-07 
 1.02000000e-01  3.06290358e-03  1.02000000e-01  9.40040704e-06  1.02000000e-01  7.31435691e-07 
 1.03000000e-01  3.11972381e-03  1.03000000e-01  9.66358002e-06  1.03000000e-01  7.32322138e-07 
 1.04000000e-01  3.17758404e-03  1.04000000e-01  9.93471158e-06  1.04000000e-01  7.32851839e-07 
 1.05000000e-01  3.23650191e-03  1.05000000e-01  1.02134417e-05  1.05000000e-01  7.32137945e-07 
 1.06000000e-01  3.29650139e-03  1.06000000e-01  1.04997199e-05  1.06000000e-01  7.32025595e-07 
 1.07000000e-01  3.35760417e-03  1.07000000e-01  1.07939020e-05  1.07000000e-01  7.32677557e-07 
 1.08000000e-01  3.41983206e-03  1.08000000e-01  1.10978575e-05  1.08000000e-01  7.33135852e-07 
 1.09000000e-01  3.48320651e-03  1.09000000e-01  1.14113570e-05  1.09000000e-01  7.32776955e-07 
 1.10000000e-01  3.54775172e-03  1.10000000e-01  1.17314897e-05  1.10000000e-01  7.32829731e-07 
 1.11000000e-01  3.61349222e-03  1.11000000e-01  1.20612413e-05  1.11000000e-01  7.34132216e-07 
 1.12000000e-01  3.68045104e-03  1.12000000e-01  1.24021300e-05  1.12000000e-01  7.33783815e-07 
 1.13000000e-01  3.74865422e-03  1.13000000e-01  1.27512568e-05  1.13000000e-01  7.33571237e-07 
 1.14000000e-01  3.81812680e-03  1.14000000e-01  1.31104467e-05  1.14000000e-01  7.34459340e-07 
 1.15000000e-01  3.88889562e-03  1.15000000e-01  1.34808411e-05  1.15000000e-01  7.34300124e-07 
 1.16000000e-01  3.96098757e-03  1.16000000e-01  1.38600995e-05  1.16000000e-01  7.34540158e-07 
 1.17000000e-01  4.03443028e-03  1.17000000e-01  1.42521570e-05  1.17000000e-01  7.34450582e-07 
 1.18000000e-01  4.10925286e-03  1.18000000e-01  1.46531629e-05  1.18000000e-01  7.35500307e-07 
 1.19000000e-01  4.18548298e-03  1.19000000e-01  1.50663380e-05  1.19000000e-01  7.34872481e-07 
 1.20000000e-01  4.26315072e-03  1.20000000e-01  1.54921836e-05  1.20000000e-01  7.35799500e-07 
 1.21000000e-01  4.34228790e-03  1.21000000e-01  1.59275936e-05  1.21000000e-01  7.35870587e-07 
 1.22000000e-01  4.42292600e-03  1.22000000e-01  1.63778923e-05  1.22000000e-01  7.35681843e-07 
 1.23000000e-01  4.50509465e-03  1.23000000e-01  1.68395767e-05  1.23000000e-01  7.36720347e-07 
 1.24000000e-01  4.58882929e-03  1.24000000e-01  1.73141592e-05  1.24000000e-01  7.36266432e-07 
 1.25000000e-01  4.67416491e-03  1.25000000e-01  1.78018757e-05  1.25000000e-01  7.35708942e-07 
 1.26000000e-01  4.76113437e-03  1.26000000e-01  1.83031607e-05  1.26000000e-01  7.37133214e-07 
 1.27000000e-01  4.84977548e-03  1.27000000e-01  1.88178440e-05  1.27000000e-01  7.36556152e-07 
 1.28000000e-01  4.94012256e-03  1.28000000e-01  1.93474798e-05  1.28000000e-01  7.37186163e-07 
 1.29000000e-01  5.03221617e-03  1.29000000e-01  1.98917316e-05  1.29000000e-01  7.36983518e-07 
 1.30000000e-01  5.12609321e-03  1.30000000e-01  2.04505110e-05  1.30000000e-01  7.38119319e-07 
 1.31000000e-01  5.22179605e-03  1.31000000e-01  2.10248349e-05  1.31000000e-01  7.38551766e-07 
 1.32000000e-01  5.31936519e-03  1.32000000e-01  2.16155799e-05  1.32000000e-01  7.37772293e-07 
 1.33000000e-01  5.41883998e-03  1.33000000e-01  2.22221382e-05  1.33000000e-01  7.39146774e-07 
 1.34000000e-01  5.52027062e-03  1.34000000e-01  2.28444871e-05  1.34000000e-01  7.38089912e-07 
 1.35000000e-01  5.62369649e-03  1.35000000e-01  2.34854944e-05  1.35000000e-01  7.38644591e-07 
 1.36000000e-01  5.72916535e-03  1.36000000e-01  2.41419530e-05  1.36000000e-01  7.39754906e-07 
 1.37000000e-01  5.83672567e-03  1.37000000e-01  2.48180467e-05  1.37000000e-01  7.40037410e-07 
 1.38000000e-01  5.94642612e-03  1.38000000e-01  2.55122336e-05  1.38000000e-01  7.40389208e-07 
 1.39000000e-01  6.05831704e-03  1.39000000e-01  2.62243455e-05  1.39000000e-01  7.40795543e-07 
 1.40000000e-01  6.17245158e-03  1.40000000e-01  2.69551855e-05  1.40000000e-01  7.40897388e-07 
 1.41000000e-01  6.28888313e-03  1.41000000e-01  2.77066488e-05  1.41000000e-01  7.42172208e-07 
 1.42000000e-01  6.40766694e-03  1.42000000e-01  2.84773045e-05  1.42000000e-01  7.41950052e-07 
 1.43000000e-01  6.52885853e-03  1.43000000e-01  2.92696611e-05  1.43000000e-01  7.42915421e-07 
 1.44000000e-01  6.65252061e-03  1.44000000e-01  3.00836491e-05  1.44000000e-01  7.43649940e-07 
 1.45000000e-01  6.77871172e-03  1.45000000e-01  3.09183401e-05  1.45000000e-01  7.44121362e-07 
 1.46000000e-01  6.90749577e-03  1.46000000e-01  3.17756540e-05  1.46000000e-01  7.44279306e-07 
 1.47000000e-01  7.03893795e-03  1.47000000e-01  3.26554089e-05  1.47000000e-01  7.44083301e-07 
 1.48000000e-01  7.17310393e-03  1.48000000e-01  3.35585350e-05  1.48000000e-01  7.45291862e-07 
 1.49000000e-01  7.31006516e-03  1.49000000e-01  3.44848605e-05  1.49000000e-01  7.44985867e-07 
 1.50000000e-01  7.44989284e-03  1.50000000e-01  3.54369988e-05  1.50000000e-01  7.46048230e-07 
 1.51000000e-01  7.59266038e-03  1.51000000e-01  3.64125135e-05  1.51000000e-01  7.46664729e-07 
 1.52000000e-01  7.73844620e-03  1.52000000e-01  3.74145936e-05  1.52000000e-01  7.47004630e-07 
 1.53000000e-01  7.88733128e-03  1.53000000e-01  3.84427857e-05  1.53000000e-01  7.47446446e-07 
 1.54000000e-01  8.03939433e-03  1.54000000e-01  3.94972928e-05  1.54000000e-01  7.48401493e-07 
 1.55000000e-01  8.19472472e-03  1.55000000e-01  4.05796253e-05  1.55000000e-01  7.48454025e-07 
 1.56000000e-01  8.35340864e-03  1.56000000e-01  4.16896644e-05  1.56000000e-01  7.49470790e-07 
 1.57000000e-01  8.51554066e-03  1.57000000e-01  4.28295423e-05  1.57000000e-01  7.49484631e-07 
 1.58000000e-01  8.68121306e-03  1.58000000e-01  4.39981211e-05  1.58000000e-01  7.50213148e-07 
 1.59000000e-01  8.85052933e-03  1.59000000e-01  4.51963404e-05  1.59000000e-01  7.52370077e-07 
 1.60000000e-01  9.02359045e-03  1.60000000e-01  4.64249573e-05  1.60000000e-01  7.52017611e-07 
 1.61000000e-01  9.20050260e-03  1.61000000e-01  4.76861037e-05  1.61000000e-01  7.52890288e-07 
 1.62000000e-01  9.38137877e-03  1.62000000e-01  4.89782506e-05  1.62000000e-01  7.53199706e-07 
 1.63000000e-01  9.56633511e-03  1.63000000e-01  5.03027258e-05  1.63000000e-01  7.54812180e-07 
 1.64000000e-01  9.75549315e-03  1.64000000e-01  5.16615403e-05  1.64000000e-01  7.55434763e-07 
 1.65000000e-01  9.94897808e-03  1.65000000e-01  5.30563147e-05  1.65000000e-01  7.55293490e-07 
 1.66000000e-01  1.01469179e-02  1.66000000e-01  5.44844997e-05  1.66000000e-01  7.56195136e-07 
 1.67000000e-01  1.03494583e-02  1.67000000e-01  5.59488828e-05  1.67000000e-01  7.56983408e-07 
 1.68000000e-01  1.05567336e-02  1.68000000e-01  5.74491580e-05  1.68000000e-01  7.58653582e-07 
 1.69000000e-01  1.07688987e-02  1.69000000e-01  5.89890658e-05  1.69000000e-01  7.58083367e-07 
 1.70000000e-01  1.09861069e-02  1.70000000e-01  6.05654867e-05  1.70000000e-01  7.60369614e-07 
 1.71000000e-01  1.12085245e-02  1.71000000e-01  6.21822262e-05  1.71000000e-01  7.61368630e-07 
 1.72000000e-01  1.14363190e-02  1.72000000e-01  6.38377729e-05  1.72000000e-01  7.62292880e-07 
 1.73000000e-01  1.16696755e-02  1.73000000e-01  6.55360199e-05  1.73000000e-01  7.62092457e-07 
 1.74000000e-01  1.19087751e-02  1.74000000e-01  6.72747012e-05  1.74000000e-01  7.63472053e-07 
 1.75000000e-01  1.21538251e-02  1.75000000e-01  6.90553876e-05  1.75000000e-01  7.64195472e-07 
 1.76000000e-01  1.24050258e-02  1.76000000e-01  7.08821966e-05  1.76000000e-01  7.67608147e-07 
 1.77000000e-01  1.26625976e-02  1.77000000e-01  7.27512352e-05  1.77000000e-01  7.67828184e-07 
 1.78000000e-01  1.29267736e-02  1.78000000e-01  7.46671882e-05  1.78000000e-01  7.69416143e-07 
 1.79000000e-01  1.31977910e-02  1.79000000e-01  7.66291642e-05  1.79000000e-01  7.69458293e-07 
 1.80000000e-01  1.34759091e-02  1.80000000e-01  7.86379686e-05  1.80000000e-01  7.70897917e-07 
 1.81000000e-01  1.37613996e-02  1.81000000e-01  8.06962729e-05  1.81000000e-01  7.71828858e-07 
 1.82000000e-01  1.40545456e-02  1.82000000e-01  8.28037847e-05  1.82000000e-01  7.73674883e-07 
 1.83000000e-01  1.43556514e-02  1.83000000e-01  8.49613448e-05  1.83000000e-01  7.74789557e-07 
 1.84000000e-01  1.46650362e-02  1.84000000e-01  8.71701487e-05  1.84000000e-01  7.77487847e-07 
 1.85000000e-01  1.49830418e-02  1.85000000e-01  8.94333110e-05  1.85000000e-01  7.78328052e-07 
 1.86000000e-01  1.53100297e-02  1.86000000e-01  9.17494587e-05  1.86000000e-01  7.79227356e-07 
 1.87000000e-01  1.56463851e-02  1.87000000e-01  9.41198859e-05  1.87000000e-01  7.80162985e-07 
 1.88000000e-01  1.59925219e-02  1.88000000e-01  9.65461524e-05  1.88000000e-01  7.83218061e-07 
 1.89000000e-01  1.63488714e-02  1.89000000e-01  9.90304768e-05  1.89000000e-01  7.84389660e-07 
 1.90000000e-01  1.67159085e-02  1.90000000e-01  1.01572026e-04  1.90000000e-01  7.85724361e-07 
 1.91000000e-01  1.70941324e-02  1.91000000e-01  1.04174353e-04  1.91000000e-01  7.87326823e-07 
 1.92000000e-01  1.74840856e-02  1.92000000e-01  1.06835993e-04  1.92000000e-01  7.89522270e-07 
 1.93000000e-01  1.78863469e-02  1.93000000e-01  1.09558878e-04  1.93000000e-01  7.90918418e-07 
 1.94000000e-01  1.83015343e-02  1.94000000e-01  1.12346355e-04  1.94000000e-01  7.93549748e-07 
 1.95000000e-01  1.87303291e-02  1.95000000e-01  1.15197665e-04  1.95000000e-01  7.95156894e-07 
 1.96000000e-01  1.91734584e-02  1.96000000e-01  1.18114342e-04  1.96000000e-01  7.97039719e-07 
 1.97000000e-01  1.96317149e-02  1.97000000e-01  1.21097940e-04  1.97000000e-01  7.99878592e-07 
 1.98000000e-01  2.01059475e-02  1.98000000e-01  1.24149484e-04  1.98000000e-01  8.01627175e-07 
 1.99000000e-01  2.05971088e-02  1.99000000e-01  1.27271358e-04  1.99000000e-01  8.03861332e-07 
 2.00000000e-01  2.11062068e-02  2.00000000e-01  1.30464094e-04  2.00000000e-01  8.06411568e-07 
 2.01000000e-01  2.16343588e-02  2.01000000e-01  1.33729154e-04  2.01000000e-01  8.08775255e-07 
 2.02000000e-01  2.21828268e-02  2.02000000e-01  1.37067952e-04  2.02000000e-01  8.11419601e-07 
 2.03000000e-01  2.27529373e-02  2.03000000e-01  1.40480959e-04  2.03000000e-01  8.13940449e-07 
 2.04000000e-01  2.33462024e-02  2.04000000e-01  1.43972340e-04  2.04000000e-01  8.16828385e-07 
