! Device:	HMC7992							
! Description:	Silicon MMIC SP4T Non-Reflective Switch							
! Package:	LP3E - 16 pin 3x3mm QFN plastic package							
! Frequency:	0.1 -  6 GHz							
!								
! Ports:								
! RFC = Port 1								
! RF1 = Port 2								
! RF2 = Port 3								
! RF3 = Port 4								
! RF4 = Port 5								
!								
! State: RF3 Selected								
!								
! Supply Voltage:								
! Vdd = 5 V								
!								
! Control Voltages: 								
! VA  = 0 V								
! VB  = 5 V								
!								
! Data:	Data was collected using a calibrated network analyzer with AFR software.							
!	Fixtures were calculated using AFR and fixturing was applied to collect 							
!	this Deembedded  S Parameter data of HMC7992.							
!								
! Note:	Analog Devices supplies this data as a sample of measured data at the package pin							
!	for this product.  Your particular data for this product may vary.							
!	Data was taken at 25 degrees C.							
!	Analog Devices reserves the right to change this data at anytime.							
!								
# GHz S  dB   R 50								
0.01	-29.307308	-5.2285013	-72.669304	133.7382	-77.642601	-125.72847	-0.44922438	-0.33891729
	-81.87542	-41.647224						
	-74.804375	130.09595	-0.22114052	-10.985451	-77.951492	-106.48609	-74.421387	11.457043
	-70.125191	136.57355						
	-77.972397	-74.31279	-78.827576	-51.295158	-0.21840954	-10.933356	-77.319771	-105.50727
	-80.624115	33.42025						
	-0.44950095	-0.4403162	-77.543022	-27.483938	-72.358536	33.703133	-29.443079	-3.2432482
	-77.636436	65.293777						
	-72.755806	89.722092	-84.142647	-92.201607	-76.921432	33.927013	-79.741226	-45.034428
	-0.23231032	-11.001969						
0.0224875	-29.731388	-6.3768511	-83.061272	62.154667	-83.417633	26.288004	-0.46203056	-0.55079812
	-83.531555	-17.415916						
	-79.710564	37.387085	-0.69205046	-23.647884	-91.805122	46.782593	-83.848038	69.591637
	-96.41555	84.483635						
	-94.270943	89.273788	-79.609161	-21.333366	-0.69025111	-23.66765	-87.494797	50.226257
	-84.603065	152.99867						
	-0.46535051	-0.62522388	-85.434669	-69.987305	-84.529091	-12.589085	-29.746796	-6.038331
	-76.764465	81.632988						
	-75.66877	24.597893	-85.25914	73.797958	-85.270485	132.09579	-83.242126	102.107
	-0.69935429	-23.648224						
0.034975	-29.997484	-6.9407096	-86.620132	18.118961	-92.510307	-136.54881	-0.47740012	-0.77261907
	-79.495964	34.653667						
	-83.21402	-12.103258	-1.3909853	-34.871403	-96.955879	16.260036	-81.560707	50.281967
	-91.203964	-112.4298						
	-86.729263	-17.158907	-92.5895	76.045486	-1.390478	-34.874413	-79.157745	21.934155
	-93.441177	120.75081						
	-0.4763287	-0.81296653	-83.138397	53.091053	-85.812538	1.295709	-30.132065	-7.2417612
	-78.100105	86.63636						
	-76.937775	32.51086	-95.008453	-3.0307403	-100.36719	-178.78659	-80.149895	68.876823
	-1.3944261	-34.841785						
0.0474625	-30.331387	-6.4098754	-77.605003	35.831425	-91.112106	120.37203	-0.48662487	-0.94631153
	-74.017685	-2.4812155						
	-79.397926	28.036175	-2.2133555	-44.470913	-81.64212	129.04579	-82.658493	30.293142
	-99.254242	-86.522491						
	-81.048637	64.084137	-87.811195	111.17806	-2.2142107	-44.475136	-86.426369	28.842838
	-93.303368	9.128274						
	-0.48663819	-0.98460793	-80.526703	53.094528	-81.408989	9.0390463	-30.395493	-6.7803168
	-75.738541	89.641418						
	-76.756905	13.599002	-88.289413	122.0442	-87.515427	106.16458	-73.896461	89.277794
	-2.2112942	-44.434792						
0.05995	-30.457964	-6.1843872	-78.195786	46.710716	-78.311371	58.78384	-0.49377126	-1.1461887
	-73.27253	11.334533						
	-78.828705	28.418732	-3.0816057	-52.648262	-86.344246	109.79766	-78.310394	30.930248
	-79.82402	95.036797						
	-77.64164	77.875298	-83.135529	109.24625	-3.0854566	-52.650433	-83.791077	-22.33231
	-100.28303	-159.98448						
	-0.49329942	-1.1556996	-78.540176	23.242228	-79.069412	-0.4618338	-30.643723	-5.5728693
	-72.800156	107.19294						
	-73.345665	4.6866126	-78.34687	30.791594	-82.517471	78.658043	-71.736366	118.82681
	-3.075016	-52.615639						
0.0724375	-30.527952	-6.0375733	-78.82827	23.299627	-79.576103	57.236855	-0.4982217	-1.3209919
	-71.348297	-8.2321615						
	-78.929955	36.415134	-3.9459889	-59.559399	-78.166504	131.42662	-83.747368	21.308399
	-89.250412	152.06207						
	-77.503761	97.662292	-79.925423	105.23931	-3.9489577	-59.598167	-84.83577	4.972158
	-90.187508	-122.89636						
	-0.49877983	-1.337877	-84.54995	91.317368	-81.80838	0.13103713	-30.807894	-5.5100236
	-70.590233	98.723122						
	-73.370842	-12.59265	-87.084793	9.404314	-92.659966	140.52458	-69.848099	88.485596
	-3.9339774	-59.58453						
0.084925	-30.589954	-5.9453206	-77.235214	65.720276	-78.902588	59.196384	-0.50212097	-1.5015092
	-73.565277	-22.34411						
	-75.456924	53.786076	-4.7751532	-65.479576	-75.997025	125.11367	-76.455032	59.360909
	-90.354958	167.50584						
	-81.129288	97.113579	-76.672005	128.19	-4.7849064	-65.55452	-81.203049	-13.482089
	-101.7356	-166.54922						
	-0.50166708	-1.5283632	-77.087051	90.290787	-86.7342	23.114138	-30.917101	-5.5025105
	-69.117294	97.078255						
	-72.547546	-5.2877426	-82.005226	123.32303	-87.683945	4.5109859	-68.546638	93.232567
	-4.7631688	-65.560997						
0.0974125	-30.653385	-6.2401323	-77.837883	15.910709	-79.883461	106.61784	-0.50540274	-1.685226
	-71.143326	-40.91687						
	-76.987915	16.819246	-5.5625553	-70.665619	-73.635536	136.42577	-78.004173	27.227716
	-94.828964	171.0733						
	-82.056671	75.218796	-74.258942	129.53882	-5.5756407	-70.761604	-77.614487	11.579741
	-88.759636	134.26524						
	-0.50565809	-1.7033392	-77.356285	75.161041	-82.815071	-15.212001	-30.9944	-5.4629011
	-67.778976	96.108154						
	-71.459557	-36.506561	-83.524979	-171.78018	-80.560562	79.307304	-67.990326	89.345551
	-5.5466437	-70.780823						
0.1099	-30.765676	-6.6424236	-80.236771	37.79372	-78.812263	78.600952	-0.50793922	-1.8693671
	-70.798058	-38.417534						
	-79.267021	22.727398	-6.300818	-75.198784	-73.721939	122.23978	-77.846764	68.235756
	-80.794609	117.25524						
	-79.503677	91.816063	-72.598564	124.24491	-6.3151212	-75.364059	-87.285843	-14.72178
	-91.61129	154.82751						
	-0.50871742	-1.8865038	-77.577995	53.758282	-81.713928	-28.390169	-31.024113	-5.6327057
	-66.732613	93.716995						
	-70.814499	-33.957371	-81.520111	160.62433	-98.074875	-107.63709	-65.893188	91.367912
	-6.2791381	-75.339905						
0.1223875	-30.817787	-6.4034915	-78.865959	40.53212	-77.673325	76.855148	-0.51137978	-2.0489047
	-70.454422	-46.220325						
	-79.141273	50.457943	-6.986805	-79.258629	-70.282913	121.82848	-76.14859	55.976322
	-84.03994	130.31842						
	-78.010597	85.998123	-70.437088	123.67966	-7.0005789	-79.485809	-80.277534	-25.079908
	-89.96582	80.269829						
	-0.51061827	-2.0634336	-77.89901	64.11882	-80.123268	18.682098	-31.038431	-5.6901927
	-65.282066	91.298218						
	-69.686699	-41.660057	-87.819267	111.40169	-91.37291	122.38923	-65.47728	93.545982
	-6.9576216	-79.403564						
0.134875	-30.836765	-6.27317	-80.111343	12.426022	-77.370911	78.501595	-0.51344073	-2.232666
	-68.881691	-50.200169						
	-77.991646	32.762672	-7.6231818	-82.934723	-69.33577	119.03396	-75.281273	64.189903
	-83.57943	117.63575						
	-75.937813	86.252785	-69.5504	123.01733	-7.6329412	-83.208244	-78.987114	-18.143064
	-91.606796	84.361092						
	-0.51360971	-2.2468967	-75.550858	66.246933	-82.781036	-21.018211	-31.091618	-5.8980069
	-64.655327	91.679871						
	-69.809914	-47.484516	-84.251595	97.798012	-95.347939	134.36107	-64.835892	92.160789
	-7.5870981	-83.074791						
0.1473625	-30.839359	-6.3196244	-80.692879	37.283562	-75.603737	86.393433	-0.51645774	-2.4129505
	-69.209038	-53.729713						
	-81.337593	28.135227	-8.2161531	-86.288429	-68.669479	117.0879	-75.231506	61.815071
	-80.079002	109.51711						
	-75.564423	80.309578	-68.587914	119.19863	-8.221138	-86.589043	-84.545746	-48.969238
	-85.863892	114.54279						
	-0.51541322	-2.4271543	-75.923866	64.369164	-81.56839	-36.863182	-31.15044	-5.2562623
	-64.006424	92.335403						
	-68.279961	-51.186852	-82.578835	98.255104	-90.219917	102.86668	-63.593334	91.455368
	-8.1736984	-86.435791						
0.15985	-30.893303	-6.0362358	-81.247505	45.308407	-75.966934	86.429703	-0.51840907	-2.599961
	-68.207748	-56.420559						
	-80.329704	58.467293	-8.7689524	-89.385933	-66.814415	118.45678	-74.926147	64.359573
	-79.821533	106.56035						
	-73.791405	82.599731	-66.743675	118.47738	-8.7699881	-89.678452	-87.503082	-24.351612
	-94.78241	85.152451						
	-0.51758295	-2.6123793	-74.108818	68.011063	-83.897705	-34.553837	-31.111326	-4.7809873
	-63.149445	89.67263						
	-68.618614	-53.815781	-80.908089	101.94675	-99.444427	52.153755	-62.79311	92.468124
	-8.7192268	-89.524986						
0.1723375	-30.880571	-5.8185472	-80.067749	42.829227	-73.295311	85.002838	-0.52014816	-2.7816207
	-67.997551	-59.652279						
	-80.945145	37.359291	-9.2820339	-92.263084	-66.367943	117.13911	-74.719109	68.34726
	-78.901627	104.7875						
	-74.166748	86.45253	-66.595116	113.77808	-9.2842216	-92.558479	-90.064293	-43.143345
	-89.113541	113.29615						
	-0.51868343	-2.7971783	-74.024788	67.686264	-84.763008	-79.965912	-31.122322	-5.0286155
	-62.318127	91.570534						
	-67.717918	-56.769348	-78.768959	115.36388	-88.47554	98.330559	-62.440712	89.915764
	-9.2244005	-92.39222						
0.184825	-30.911379	-6.0205817	-79.577782	37.680462	-73.97718	100.16647	-0.5214299	-2.9685919
	-68.395462	-65.181259						
	-83.970779	42.728134	-9.7605934	-94.95311	-65.382195	117.63042	-73.906631	66.489365
	-79.672333	106.99184						
	-73.31279	85.113869	-64.816544	111.94229	-9.7674589	-95.245056	-82.110176	-91.824669
	-92.130165	73.792267						
	-0.52121001	-2.9821773	-73.053543	78.773567	-88.968079	42.805817	-31.15143	-4.7781696
	-61.67524	91.930801						
	-69.756973	-57.409672	-76.199928	101.98767	-87.342705	108.49053	-61.591614	87.079094
	-9.6956453	-95.064987						
0.1973125	-31.019049	-6.4451303	-79.633438	64.365562	-72.279152	89.42746	-0.52101439	-3.1438503
	-67.27079	-64.05265						
	-79.722603	17.22496	-10.208876	-97.487053	-64.705208	110.67425	-72.502335	66.106293
	-82.571503	70.05687						
	-71.97567	86.120667	-64.055878	115.54486	-10.21367	-97.814667	-84.521088	-64.030357
	-85.724785	117.94021						
	-0.52046317	-3.1550834	-73.783592	81.867226	-83.19622	-40.010174	-31.112677	-4.6441159
	-60.643505	89.927063						
	-66.144043	-62.421402	-77.824501	106.02757	-81.876007	118.07178	-60.842197	89.596329
	-10.135543	-97.59903						
0.2098	-31.01791	-6.3422189	-80.928299	51.367741	-71.620003	88.935631	-0.52311903	-3.3347268
	-66.514839	-64.810997						
	-88.059441	47.948414	-10.624103	-99.90731	-64.133644	108.67514	-73.62265	74.390167
	-76.660179	109.06984						
	-72.997467	83.720726	-63.981716	113.79127	-10.630468	-100.29256	-83.28257	-28.07604
	-91.30632	90.549973						
	-0.5222314	-3.3554068	-72.485214	76.707649	-88.4627	-64.345543	-31.087238	-5.0507646
	-61.158813	87.89946						
	-66.814972	-67.736786	-75.716179	111.71235	-87.55011	111.94153	-60.060688	88.65947
	-10.542564	-99.988594						
0.2222875	-31.016621	-6.6022596	-78.493401	95.006096	-71.941734	80.886032	-0.52450067	-3.5196164
	-65.977409	-72.045128						
	-84.244331	72.921371	-11.012098	-102.21374	-63.924076	109.05632	-71.306816	63.753464
	-77.018723	104.62589						
	-72.753357	98.284622	-63.615864	108.80249	-11.014874	-102.65023	-83.3685	-69.570541
	-86.336479	137.14186						
	-0.52480274	-3.5389907	-73.971359	59.224556	-81.567184	-72.101707	-31.143908	-5.3133841
	-60.168751	87.890106						
	-66.270264	-70.666595	-75.912636	104.53283	-87.02401	62.13781	-60.08699	85.843872
	-10.926402	-102.25647						
0.234775	-31.072191	-6.8393407	-79.990524	45.334343	-70.691505	82.385048	-0.5245502	-3.7111385
	-66.234917	-72.644791						
	-83.515015	34.332748	-11.372684	-104.39367	-63.087151	108.46253	-71.583366	69.138374
	-75.648262	94.352852						
	-69.718796	75.08075	-62.986576	105.74313	-11.369993	-104.84168	-81.362167	-118.76829
	-84.381134	72.519455						
	-0.52646649	-3.7190483	-71.189651	65.379791	-80.944374	-59.197208	-31.090452	-4.7535396
	-59.291462	88.573692						
	-65.943481	-72.034027	-77.445137	105.86798	-81.666435	112.51418	-59.665897	87.606239
	-11.279589	-104.38666						
0.2472625	-31.000898	-6.8446503	-81.007324	73.242996	-71.353806	84.138649	-0.52480549	-3.9015188
	-65.658813	-74.542389						
	-79.192627	81.58596	-11.708577	-106.46893	-62.710831	108.73992	-72.860947	69.448593
	-74.162697	98.527367						
	-71.278168	81.080399	-62.601948	107.66274	-11.698561	-106.92986	-88.202454	-78.604156
	-85.264404	58.514442						
	-0.5266462	-3.9119699	-72.314606	63.93066	-82.591286	-90.445122	-31.17248	-5.5795388
	-59.206722	87.836571						
	-66.186615	-76.51226	-74.954994	106.75237	-81.979279	125.04109	-59.24353	86.357399
	-11.609185	-106.44984						
0.25975	-31.048628	-6.9303274	-79.080414	47.560482	-71.574799	83.524475	-0.52946949	-4.0834289
	-64.803787	-78.263603						
	-78.344269	48.430725	-12.028603	-108.4567	-61.570747	106.28227	-72.622902	74.045746
	-78.074738	97.868866						
	-70.550308	80.611031	-63.27298	110.54924	-12.01628	-108.86766	-79.852463	-96.400703
	-84.656799	-24.246614						
	-0.52576888	-4.0948086	-74.095589	58.238934	-86.522789	-44.300743	-31.090994	-5.7339144
	-58.562675	88.633034						
	-64.892647	-76.266518	-75.637558	114.44136	-78.283447	125.88446	-58.87492	85.782532
	-11.921056	-108.42004						
0.2722375	-30.995541	-7.6476221	-78.938362	57.760307	-70.139153	82.012535	-0.53043157	-4.2638516
	-64.755081	-74.01001						
	-83.419167	121.66347	-12.323527	-110.37182	-61.305351	107.6362	-70.471893	65.208412
	-73.688263	79.840851						
	-69.659233	88.152924	-61.650658	102.13694	-12.317122	-110.70838	-75.139465	-94.305168
	-87.245964	94.985413						
	-0.53061199	-4.2673645	-68.988152	71.019539	-78.045975	-111.28322	-31.176008	-5.7672739
	-58.339603	90.599709						
	-65.117317	-84.012741	-71.641823	85.319244	-87.049889	-169.07338	-58.477612	89.765099
	-12.214401	-110.2967						
0.284725	-31.170904	-7.9326544	-80.57653	41.218575	-70.047249	80.650757	-0.53145999	-4.4438357
	-63.850971	-80.738243						
	-80.495941	88.920746	-12.610122	-112.19352	-60.975704	105.29581	-70.033844	75.071625
	-73.541306	85.368057						
	-69.548111	92.998924	-61.150036	103.03839	-12.611743	-112.53422	-83.835411	-57.332253
	-86.472496	127.48802						
	-0.52853739	-4.4504843	-70.811272	72.506935	-81.606926	-96.18457	-31.031359	-5.7744298
	-58.096867	87.421898						
	-65.295456	-79.37236	-73.768013	94.138794	-82.453682	62.64806	-57.795914	89.610504
	-12.486285	-112.05705						
0.2972125	-31.17342	-8.7928886	-78.706856	69.721336	-70.472366	94.063751	-0.53169	-4.6277246
	-63.906929	-77.040932						
	-82.440414	99.772751	-12.876487	-113.97752	-60.913685	107.13705	-70.969727	69.49514
	-74.582283	111.02885						
	-70.722961	87.339088	-61.11755	102.39967	-12.883534	-114.38468	-77.767746	-68.205444
	-98.473633	137.08234						
	-0.52798486	-4.6381102	-68.86058	62.912991	-76.725082	-63.098755	-30.981812	-6.5058789
	-57.591721	88.182938						
	-62.880917	-78.766617	-73.447227	81.921425	-78.955261	117.64229	-57.824192	87.769989
	-12.746616	-113.79317						
0.3097	-31.16584	-8.944025	-88.217575	123.52537	-69.554016	81.492828	-0.53354549	-4.8378496
	-64.144455	-83.67746						
	-84.424164	77.8162	-13.12738	-115.71962	-60.727932	106.63484	-68.968727	70.016937
	-73.5569	100.36321						
	-69.938187	89.018211	-59.947105	106.11346	-13.134084	-116.16025	-79.945976	-93.745544
	-78.490677	82.433334						
	-0.52888834	-4.8331432	-69.910751	79.502586	-79.394852	-79.327179	-30.99025	-7.029892
	-57.401268	85.431198						
	-64.355179	-81.342064	-72.714455	95.578552	-80.423096	79.142723	-57.303341	89.294868
	-12.991913	-115.44477						
0.3221875	-31.245649	-9.7265415	-81.53112	80.86042	-68.816406	84.735786	-0.53277588	-5.0064931
	-63.395706	-83.20211						
	-76.947594	75.815681	-13.358939	-117.39549	-60.002815	102.03073	-69.126457	69.694336
	-72.544731	92.638794						
	-69.38942	75.487091	-59.442963	102.74857	-13.362567	-117.93452	-76.357574	-83.499504
	-78.717072	93.374786						
	-0.53034604	-5.0177078	-69.532433	61.580166	-76.025185	-98.121681	-30.900785	-6.5604978
	-57.053635	88.165489						
	-63.876675	-84.844215	-72.585434	94.855087	-85.281929	117.68689	-57.379677	86.418663
	-13.225146	-117.07179						
0.334675	-31.249613	-9.398531	-77.304153	73.884201	-69.117485	87.734673	-0.53298247	-5.1892109
	-63.404613	-87.384781						
	-78.660675	79.363533	-13.573993	-119.04057	-59.543968	102.07302	-69.349533	63.774555
	-74.399765	99.764534						
	-68.915726	89.762238	-59.447502	103.43439	-13.573714	-119.53569	-79.840729	-60.575924
	-81.99192	98.498238						
	-0.53247857	-5.1977825	-69.447701	77.156319	-78.454735	-80.745041	-30.849377	-7.2836881
	-56.754669	86.639702						
	-63.428864	-88.746223	-73.333977	94.789124	-83.640701	104.51434	-56.72578	88.267021
	-13.437604	-118.61359						
0.3471625	-31.172264	-10.128564	-79.879593	93.968033	-68.436432	81.368195	-0.53536934	-5.3799047
	-63.314957	-86.569397						
	-78.061737	81.684593	-13.777141	-120.58028	-59.117001	99.670013	-68.898537	69.90493
	-71.021606	95.387047						
	-68.384186	82.377693	-59.394142	103.75408	-13.773616	-121.11055	-78.634354	-85.897789
	-83.414948	81.667641						
	-0.5330162	-5.3877335	-70.541344	68.830025	-78.786598	-80.422028	-30.961948	-7.436563
	-56.355587	86.728668						
	-63.2327	-86.786774	-71.20005	100.64612	-80.987045	94.01738	-56.328976	86.336548
	-13.643591	-120.12941						
0.35965	-31.137295	-9.9608908	-76.078896	74.001198	-67.761604	84.817986	-0.53438878	-5.5712743
	-62.626724	-89.871857						
	-76.819679	67.499321	-13.968499	-122.0597	-58.481785	103.01646	-69.889992	73.834328
	-72.585197	93.731941						
	-69.619339	78.804489	-59.031429	100.76078	-13.963222	-122.55833	-79.75782	-77.772934
	-79.040672	96.054977						
	-0.53383356	-5.5766826	-69.4347	75.773582	-80.884277	-84.877914	-31.002234	-7.4874959
	-56.049194	86.012482						
	-62.058151	-87.113876	-72.675034	90.454422	-82.790169	106.29806	-56.043453	87.082771
	-13.828919	-121.59225						
0.3721375	-31.121569	-10.726419	-76.416611	80.469696	-68.365837	80.829956	-0.53602499	-5.7473307
	-62.589848	-91.070648						
	-76.207474	73.074677	-14.153455	-123.48075	-58.393761	100.86758	-69.766434	74.374268
	-71.574699	104.3175						
	-67.752419	82.172256	-58.666664	99.806938	-14.158154	-123.99233	-79.059502	-79.299431
	-79.902504	108.45336						
	-0.53474438	-5.7572589	-69.290031	74.618896	-79.941574	-70.849609	-31.015705	-7.5498481
	-55.817295	86.680725						
	-62.597324	-89.885658	-71.51902	93.200554	-82.242661	109.70976	-55.898167	86.054787
	-14.015322	-123.00375						
0.384625	-31.109047	-11.216219	-77.41597	81.326164	-67.31369	85.016991	-0.53445822	-5.9370828
	-62.462524	-90.603271						
	-77.271904	77.134689	-14.334461	-124.85724	-58.330124	99.059036	-69.291618	74.198761
	-71.105072	99.285706						
	-67.434761	86.03627	-58.335457	101.74738	-14.345033	-125.41778	-80.371216	-82.777512
	-80.132256	106.87753						
	-0.53422856	-5.9399219	-68.673889	81.667488	-79.314575	-85.565842	-31.031967	-7.9240942
	-55.398262	86.029732						
	-62.582626	-94.073532	-71.088936	95.83091	-80.495537	95.456993	-55.395504	86.133125
	-14.187201	-124.37467						
0.3971125	-31.128344	-11.563801	-79.718727	75.963318	-67.879761	88.068398	-0.53754103	-6.1160479
	-62.333363	-89.988892						
	-79.079063	91.117897	-14.511006	-126.24422	-58.107674	100.11363	-68.330772	71.894234
	-71.308472	95.067192						
	-67.239388	84.595604	-58.171192	100.84921	-14.524625	-126.88599	-78.531105	-97.668114
	-77.200539	83.905365						
	-0.53658998	-6.129436	-68.537071	71.499504	-79.982666	-93.73278	-31.034592	-8.2216997
	-55.084175	86.424591						
	-61.852329	-93.068954	-71.563545	93.982162	-82.605392	71.56517	-55.214005	86.798325
