! Device:	HMC7992							
! Description:	Silicon MMIC SP4T Non-Reflective Switch							
! Package:	LP3E - 16 pin 3x3mm QFN plastic package							
! Frequency:	0.1 -  6 GHz							
!								
! Ports:								
! RFC = Port 1								
! RF1 = Port 2								
! RF2 = Port 3								
! RF3 = Port 4								
! RF4 = Port 5								
!								
! State: RF1 Selected								
!								
! Supply Voltage:								
! Vdd = 5 V								
!								
! Control Voltages: 								
! VA  = 0 V								
! VB  = 0 V								
!								
! Data:	Data was collected using a calibrated network analyzer with AFR software.							
!	Fixtures were calculated using AFR and fixturing was applied to collect 							
!	this Deembedded  S Parameter data of HMC7992.							
!								
! Note:	Analog Devices supplies this data as a sample of measured data at the package pin							
!	for this product.  Your particular data for this product may vary.							
!	Data was taken at 25 degrees C.							
!	Analog Devices reserves the right to change this data at anytime.							
!								
# GHz S  dB   R 50								
0.01	-29.384151	-3.980088	-0.44819564	-0.36802754	-74.892349	-134.00467	-82.651733	148.78903
	-74.508636	-169.31984						
	-0.45027164	-0.42872137	-29.361303	-3.4564743	-77.31498	74.527275	-87.423912	-143.2433
	-75.920464	-99.760971						
	-72.670822	-93.917999	-78.74939	133.08588	-0.21795231	-10.923947	-82.296501	11.892468
	-87.868111	-128.86806						
	-83.589058	122.43125	-76.692383	166.01472	-76.209396	-178.84108	-0.22008048	-10.973582
	-74.12085	-49.328476						
	-71.31105	99.39164	-100.8207	-74.872955	-82.549377	-98.731888	-78.013542	-65.989105
	-0.22008692	-10.972093						
0.0224875	-29.758797	-6.9313326	-0.46467751	-0.56012017	-93.557724	-61.797775	-90.862282	76.250381
	-80.844055	37.068817						
	-0.46461987	-0.57305008	-29.771769	-6.4223952	-85.412888	23.292934	-82.842827	159.44014
	-78.847878	-1.3528135						
	-78.177368	-3.7293897	-82.608162	33.421101	-0.69018704	-23.673552	-84.337685	21.210087
	-81.580643	-61.928738						
	-83.599724	65.817047	-90.561646	22.725857	-86.483841	29.11916	-0.68830162	-23.678558
	-85.157364	-151.38654						
	-81.682983	62.51696	-79.377403	77.273262	-82.421715	-42.806889	-84.731888	177.20085
	-0.68837237	-23.654573						
0.034975	-30.100069	-7.3506112	-0.476248	-0.75209361	-76.905518	-12.93399	-87.396423	93.603134
	-81.694824	27.429518						
	-0.47638875	-0.7583006	-30.136574	-7.7269335	-76.946724	95.384468	-89.041031	38.502502
	-79.460922	54.925465						
	-78.744629	28.858522	-77.264717	62.681808	-1.3918371	-34.881969	-86.34507	167.33417
	-86.877136	56.123344						
	-83.492577	37.962627	-84.481796	-83.37529	-85.792702	119.98162	-1.3882773	-34.912315
	-87.476082	113.94453						
	-85.713768	19.479568	-80.080811	25.89625	-95.790161	114.70767	-99.426628	-117.71388
	-1.3897406	-34.869141						
0.0474625	-30.310734	-7.8318577	-0.48818299	-0.90974224	-81.058022	-8.5122395	-79.525719	57.808495
	-81.94352	31.103409						
	-0.48777539	-0.92064303	-30.420588	-7.3867488	-75.597946	81.5112	-87.023094	15.034051
	-83.121132	33.640694						
	-78.021011	12.26534	-80.633774	96.479309	-2.2163458	-44.479477	-89.114182	-147.92023
	-89.39682	58.255955						
	-90.275452	133.61827	-84.056427	26.460854	-90.075417	126.27643	-2.2113566	-44.500874
	-89.865631	129.07204						
	-78.53952	51.06892	-80.545479	16.94313	-82.864204	-33.806553	-88.621986	177.08647
	-2.2105913	-44.445137						
0.05995	-30.511772	-7.4592447	-0.49641633	-1.088131	-77.331192	14.872303	-83.029816	119.24921
	-71.719116	46.107323						
	-0.49553114	-1.0863408	-30.618719	-6.908535	-75.345856	107.36914	-101.45137	-49.147064
	-78.563988	46.32193						
	-80.207268	32.823326	-78.877426	100.7	-3.0871525	-52.658184	-84.105225	-120.92592
	-88.64576	-135.51811						
	-83.051117	148.39938	-78.749985	44.739552	-91.303589	-156.80145	-3.0794477	-52.692154
	-101.33463	-108.41315						
	-76.906487	51.24968	-75.925163	32.113731	-83.4869	-169.64326	-84.311874	57.77216
	-3.0784848	-52.62521						
0.0724375	-30.615862	-7.4716654	-0.49978924	-1.2551767	-79.419189	-30.282118	-79.861534	83.108345
	-75.543076	58.446674						
	-0.49935409	-1.2685362	-30.713497	-6.4117088	-72.204514	94.497574	-87.788414	-40.319561
	-80.603584	41.169136						
	-76.187828	-18.447435	-73.004822	117.25756	-3.9500394	-59.604195	-80.934593	154.82504
	-86.960594	101.80636						
	-82.386192	105.09278	-84.343483	-58.263012	-85.060555	22.914135	-3.9436016	-59.652046
	-76.290833	123.3218						
	-79.522316	49.379131	-89.918701	13.667209	-82.968445	-117.45904	-78.775444	122.53004
	-3.9417496	-59.562405						
0.084925	-30.702013	-7.4237833	-0.50467765	-1.4254482	-76.886665	-24.493946	-82.689117	111.71387
	-75.481041	78.255402						
	-0.50288832	-1.4230357	-30.767021	-6.5368576	-71.501083	101.44899	-90.529404	33.658119
	-80.44101	36.98436						
	-76.115921	-20.534557	-71.015182	105.12051	-4.7872505	-65.545273	-83.93058	138.35878
	-85.607864	54.930264						
	-76.231209	106.71551	-84.281319	24.094814	-85.264236	115.73721	-4.7758818	-65.617455
	-74.883774	132.52437						
	-74.436317	59.81955	-81.973618	33.696732	-83.189171	156.77087	-76.165741	134.40799
	-4.7724605	-65.516594						
0.0974125	-30.830553	-7.699985	-0.50765395	-1.5952722	-72.702988	-42.180824	-76.430016	73.48069
	-75.905815	34.708363						
	-0.50795925	-1.5987852	-30.822327	-6.3805456	-71.027397	94.311989	-82.041542	-25.35269
	-76.241257	51.024776						
	-73.816612	-41.917244	-69.985252	94.357635	-5.5781651	-70.749718	-86.069557	100.75348
	-93.738434	-85.145905						
	-75.824554	67.136734	-80.606697	-26.528265	-83.641853	166.51047	-5.5628247	-70.825966
	-73.209023	127.77831						
	-76.318474	60.194786	-79.34288	58.058739	-87.817093	-27.506363	-74.590141	142.36539
	-5.5587478	-70.703438						
0.1099	-30.890406	-7.6254411	-0.51118863	-1.7626532	-72.230064	-40.093323	-78.906769	85.231476
	-75.816452	58.429306						
	-0.51045626	-1.7676206	-30.854406	-6.2561455	-68.660454	98.172249	-83.098625	-42.364525
	-80.099953	46.505592						
	-73.597008	-39.493259	-69.651566	92.236382	-6.3200321	-75.356911	-78.855995	120.17577
	-88.475845	76.119598						
	-77.843079	82.58654	-82.929504	-39.990429	-80.695045	148.24841	-6.2977862	-75.38253
	-72.740799	124.86735						
	-77.248589	54.454533	-79.003593	50.369221	-90.427116	122.05793	-71.994186	127.43535
	-6.2926154	-75.253975						
0.1223875	-30.936256	-8.1188784	-0.51243496	-1.9335676	-71.644386	-50.880417	-75.615196	80.72068
	-74.691643	70.725807						
	-0.51140225	-1.9401597	-30.915281	-6.2709351	-68.351707	97.796524	-82.21032	-26.650496
	-77.254585	53.165585						
	-71.591942	-45.592159	-67.831261	91.374443	-7.0063128	-79.473602	-80.410667	126.14664
	-86.609077	82.928444						
	-76.454422	96.238876	-81.271759	-3.1807482	-79.203331	131.14842	-6.9803033	-79.447807
	-70.511215	125.08711						
	-75.095856	68.022766	-76.669937	49.361443	-102.68542	168.15923	-70.807655	122.76276
	-6.9745889	-79.312973						
0.134875	-31.017101	-7.9610229	-0.51568884	-2.1012161	-71.380318	-49.310299	-75.050446	84.50222
	-77.376183	60.346298						
	-0.51433831	-2.108494	-31.004372	-6.6180143	-67.28923	97.869873	-84.598396	-29.700586
	-75.854752	41.582996						
	-72.031525	-47.65823	-66.871147	97.777313	-7.639051	-83.206657	-79.76162	112.35701
	-92.500031	101.86509						
	-77.207756	79.394424	-84.210678	-11.264967	-79.958984	128.30342	-7.6143913	-83.121262
	-69.24601	122.18939						
	-75.04232	62.398834	-77.810638	47.072647	-95.449852	59.788361	-68.833267	119.64207
	-7.605576	-82.963097						
0.1473625	-31.052938	-7.6431079	-0.51774752	-2.2736564	-70.661636	-50.637836	-73.889244	99.855774
	-76.18232	71.114403						
	-0.51665145	-2.2771394	-31.053537	-6.1167402	-66.351112	99.026825	-81.773735	-24.124538
	-74.960205	44.531761						
	-71.09494	-59.142834	-66.290337	101.9469	-8.2269516	-86.577499	-77.730919	120.66574
	-89.033478	88.635895						
	-75.129791	92.504684	-87.47757	-47.674732	-77.144127	109.95155	-8.2050991	-86.483459
	-68.159409	119.21928						
	-74.771484	62.56506	-76.000511	38.077106	-92.700203	-173.0094	-68.229263	120.82139
	-8.1932459	-86.304771						
0.15985	-31.025166	-7.5721817	-0.52052492	-2.4456136	-70.036774	-56.172485	-74.844795	99.43222
	-75.110725	85.967422						
	-0.51797992	-2.4484458	-31.014776	-5.718195	-65.291527	97.40345	-83.249947	-34.321171
	-75.113129	42.150856						
	-70.148956	-57.461502	-65.073425	98.030273	-8.7762623	-89.660446	-76.299896	118.83321
	-88.68364	124.44576						
	-74.813316	90.87291	-80.621246	5.4527268	-76.465729	122.85287	-8.7525206	-89.588722
	-67.149246	116.48478						
	-74.090363	80.776642	-75.260162	49.664913	-100.19328	122.91693	-67.453506	117.18156
	-8.7403955	-89.380707						
0.1723375	-31.059896	-7.630054	-0.52171737	-2.6104517	-69.668541	-58.988094	-74.177032	96.937721
	-75.461235	85.235077						
	-0.52009994	-2.6199203	-31.019915	-5.8064661	-64.615654	95.337326	-82.929092	-37.503944
	-75.962311	42.926075						
	-69.497864	-58.229336	-64.837669	98.224091	-9.2904234	-92.527916	-76.230751	114.89281
	-85.610809	98.773872						
	-74.521545	90.632538	-83.456558	-34.133583	-75.979179	116.33029	-9.2621613	-92.464218
	-66.727936	118.4691						
	-74.673485	85.442146	-75.731239	44.701553	-89.874695	137.38924	-66.203468	115.54258
	-9.2486992	-92.223328						
0.184825	-31.081463	-7.5302248	-0.52310944	-2.7846754	-68.617088	-53.716961	-72.772842	98.872772
	-74.77729	60.82159						
	-0.5211215	-2.788074	-31.063148	-5.4481301	-63.813946	93.231613	-86.80407	-53.921501
	-74.156075	44.544067						
	-69.62265	-61.828449	-64.005363	95.10939	-9.7767277	-95.214752	-76.568794	109.17416
	-91.326294	26.77244						
	-73.365501	79.19368	-80.611839	-44.83147	-76.212105	115.33237	-9.737608	-95.147263
	-65.819153	110.68201						
	-74.882019	85.533951	-73.528236	55.572659	-114.7972	-30.651106	-66.034462	115.28131
	-9.7245541	-94.900635						
0.1973125	-31.053493	-7.6991611	-0.52357423	-2.9532204	-69.757881	-57.816822	-74.062752	67.157303
	-72.314476	81.290344						
	-0.52165097	-2.960484	-31.066051	-5.2395797	-62.946339	93.208801	-82.385056	-33.207996
	-76.258812	36.81266						
	-67.374825	-59.724411	-63.196609	89.971954	-10.222093	-97.792702	-74.554115	102.38625
	-88.403511	121.74748						
	-72.322388	79.770805	-80.331085	-11.327499	-74.473679	119.94653	-10.1772	-97.663071
	-65.375801	115.70399						
	-72.22506	71.482437	-72.668037	35.8396	-83.255203	69.792274	-64.418983	110.78406
	-10.167033	-97.409943						
0.2098	-31.119957	-8.2621593	-0.52475464	-3.1295187	-67.859108	-67.159622	-71.910507	92.423386
	-72.374313	78.874268						
	-0.52255762	-3.1408176	-31.062355	-5.5483985	-62.886002	96.002037	-80.757088	-59.522785
	-74.451897	46.057789						
	-68.266228	-68.606461	-63.155033	97.537971	-10.639655	-100.2612	-73.820465	103.53419
	-85.956238	104.47654						
	-71.979134	77.683014	-82.013573	-44.726265	-74.402817	98.960938	-10.590871	-100.06969
	-64.041595	106.53539						
	-74.402283	85.064095	-74.000565	44.544079	-85.202499	91.328758	-64.265739	112.16019
	-10.575673	-99.80471						
0.2222875	-31.162073	-8.4083891	-0.52579731	-3.3055425	-67.973343	-65.794754	-71.770119	86.962151
	-72.979256	89.87471						
	-0.52478886	-3.3084714	-31.178696	-6.0369391	-62.350212	97.668381	-79.916191	-52.302391
	-74.709106	54.50761						
	-67.640373	-61.954487	-62.645794	94.616035	-11.024429	-102.6215	-74.152473	107.31055
	-83.483078	104.79557						
	-72.445847	97.490837	-81.308937	-20.462414	-74.792717	101.79981	-10.977443	-102.33986
	-63.929787	106.81772						
	-73.075714	92.864731	-73.523018	43.112938	-83.666656	110.64469	-63.812775	109.72169
	-10.960721	-102.0695						
0.234775	-31.163107	-8.5776052	-0.52757603	-3.4811265	-66.757744	-73.329819	-72.059639	84.489685
	-71.776176	77.329712						
	-0.52577299	-3.4845738	-31.174963	-5.6460199	-61.961037	96.026772	-82.241531	-50.856224
	-73.136658	46.946232						
	-67.083733	-70.210899	-61.924259	95.47982	-11.377916	-104.82125	-72.423424	96.377602
	-85.443893	99.167847						
	-71.535049	84.510529	-80.666428	-34.020412	-72.994576	112.11314	-11.33409	-104.48531
	-62.915901	105.14985						
	-71.647842	79.192543	-73.51123	41.099995	-87.656708	121.16225	-63.245918	104.25672
	-11.31416	-104.20085						
0.2472625	-31.240572	-9.2779675	-0.52689749	-3.6587625	-66.937462	-70.00341	-72.158058	93.623016
	-72.571602	86.891502						
	-0.52643025	-3.6558993	-31.240091	-6.9462605	-61.670326	95.495483	-82.747238	-52.220303
	-73.168114	45.484627						
	-67.268066	-68.232986	-60.982159	97.067612	-11.70809	-106.90014	-71.796265	110.45079
	-81.509979	100.2484						
	-71.700706	98.394493	-87.336159	-55.692284	-73.325981	99.965736	-11.671184	-106.57332
	-62.391304	110.83717						
	-71.613373	89.991791	-76.092545	35.061165	-84.908592	99.125862	-62.464699	108.00327
	-11.646237	-106.25035						
0.25975	-31.203821	-9.2940969	-0.52811956	-3.8290644	-65.694267	-72.066673	-72.935509	95.885735
	-71.091965	95.557854						
	-0.52762938	-3.8401864	-31.154997	-7.2836704	-61.062157	95.678101	-77.424675	-56.952606
	-72.46209	47.942844						
	-66.405022	-72.973434	-60.46521	97.285454	-12.023192	-108.84156	-71.989494	119.99682
	-81.24015	99.00219						
	-70.360168	90.439789	-79.925194	-25.37101	-76.522072	88.46167	-11.983807	-108.58292
	-62.34346	108.70716						
	-71.172653	89.996178	-72.914604	56.192318	-80.719513	21.572887	-62.643616	108.24541
	-11.956861	-108.19639						
0.2722375	-31.294516	-9.0588474	-0.52732807	-3.9974353	-66.093948	-70.477699	-71.656464	93.723671
	-72.690384	100.46971						
	-0.52761239	-4.0114403	-31.163567	-7.2800913	-61.237022	96.463326	-77.100769	-51.559967
	-74.058029	37.525093						
	-66.770523	-78.561554	-60.527081	91.742203	-12.324664	-110.68755	-71.811958	107.64333
	-88.325356	90.772942						
	-71.124969	96.7481	-77.528259	-36.855801	-71.612465	108.51885	-12.281674	-110.47526
	-61.394211	104.71191						
	-71.174606	96.680275	-73.018547	27.791285	-80.601044	89.992737	-61.110836	106.22713
	-12.256823	-110.06549						
0.284725	-31.159964	-9.5346098	-0.52954674	-4.1680889	-64.982101	-77.41188	-69.926552	86.347794
	-71.18338	97.305031						
	-0.52701074	-4.1797109	-31.05751	-6.8769741	-60.112362	93.594894	-81.698586	-40.593456
	-74.47493	48.524868						
	-64.635925	-73.843941	-59.939598	95.249367	-12.619349	-112.52118	-70.808701	86.664551
	-82.87513	69.301888						
	-69.128502	83.326393	-79.34948	-82.615501	-71.385056	119.84865	-12.548521	-112.25735
	-60.943085	103.48089						
	-70.256508	85.040062	-73.206902	58.09404	-81.87973	83.896255	-61.315739	103.99194
	-12.530717	-111.84827						
0.2972125	-31.16416	-10.177785	-0.53014994	-4.3464127	-64.487427	-78.472824	-70.630966	84.751328
	-70.857101	101.03873						
	-0.52909797	-4.349535	-31.050875	-7.5568137	-60.052208	91.62429	-79.595169	-68.767273
	-73.379646	43.736271						
	-65.13385	-75.733467	-59.975208	96.415977	-12.894393	-114.34323	-70.969521	104.17065
	-77.798683	90.509605						
	-68.965157	82.825569	-80.398643	-70.624329	-70.23819	101.49273	-12.815158	-113.97508
	-61.703228	101.76511						
	-70.04982	86.956566	-73.197037	35.238331	-80.65464	138.01526	-60.6161	103.13701
	-12.796948	-113.56213						
0.3097	-31.174248	-10.995049	-0.53217047	-4.5293341	-64.456573	-83.284363	-72.340553	93.381927
	-70.712219	93.827339						
	-0.5296334	-4.5258622	-31.115644	-7.7810011	-59.573181	96.495079	-78.463211	-53.039276
	-74.518242	49.332344						
	-64.800209	-80.031281	-60.022533	96.015678	-13.150653	-116.13827	-72.355507	107.58656
	-94.972816	94.659332						
	-70.231117	90.694031	-79.32383	-76.991409	-70.475708	100.44027	-13.058311	-115.6516
	-60.554379	103.23812						
	-70.314896	92.278305	-74.333061	57.736328	-91.973488	127.79958	-60.191547	102.53336
	-13.037988	-115.23546						
0.3221875	-31.111593	-11.804654	-0.53231293	-4.6921687	-64.659561	-81.587723	-68.277893	96.336823
	-68.568871	96.290718						
	-0.53083807	-4.7025256	-31.149023	-7.9041495	-59.229534	94.435867	-79.451668	-103.85485
	-72.261925	50.433392						
	-64.650108	-79.175041	-59.423321	95.112732	-13.377363	-117.90243	-69.515572	96.147385
	-82.579979	120.12888						
	-68.68351	90.690895	-81.355087	-59.773624	-70.292999	96.999863	-13.298345	-117.26608
	-59.981979	101.29973						
	-69.135452	88.624046	-72.345779	40.174881	-80.157845	87.384232	-60.051956	105.24747
	-13.270905	-116.83841						
0.334675	-31.131392	-12.741474	-0.53045911	-4.8636208	-63.989277	-90.276466	-69.018181	83.61377
	-68.701057	87.162331						
	-0.53103036	-4.8821588	-31.119213	-9.0593748	-58.961964	91.096794	-78.769028	-67.295822
	-73.437469	54.659779						
	-63.847343	-80.916145	-58.817047	90.280304	-13.587037	-119.52798	-68.719475	86.108521
	-81.665276	99.058327						
	-69.303391	77.773628	-78.907463	-58.205692	-69.391365	99.4132	-13.517373	-118.8539
	-59.638405	102.43891						
	-69.489464	87.737663	-75.177246	50.553837	-80.208755	92.05574	-59.474049	102.79163
	-13.484587	-118.38007						
0.3471625	-31.137857	-12.842422	-0.53304756	-5.0491042	-63.684135	-83.133911	-69.576363	84.767258
	-69.091873	94.373848						
	-0.53246158	-5.0563331	-31.232185	-9.9547539	-58.772663	91.782127	-83.17627	-95.858589
	-75.388298	55.857876						
	-63.63887	-85.485703	-58.493454	93.514114	-13.782999	-121.07726	-68.781487	97.91185
	-82.3274	88.500374						
	-68.658752	89.201698	-86.840919	-109.55013	-68.686478	95.466469	-13.730133	-120.42025
	-59.181557	100.89028						
	-69.82399	84.608887	-73.835556	46.658882	-78.908119	86.733238	-59.639225	102.78941
	-13.691744	-119.89009						
0.35965	-31.105072	-13.495283	-0.53398269	-5.2194223	-63.129456	-82.229347	-68.969154	85.712997
	-67.881027	87.428864						
	-0.53321671	-5.2287765	-31.206955	-10.374354	-58.251053	90.804756	-76.917793	-89.120972
	-72.502876	48.896587						
	-63.209549	-84.083916	-57.985172	91.830933	-13.974937	-122.52148	-69.785881	99.937317
	-83.129173	114.70271						
	-67.731842	83.704315	-76.693459	-73.065475	-69.703583	97.43602	-13.916076	-121.94049
	-58.874687	101.55252						
	-67.578552	88.274414	-72.35672	40.9543	-77.262993	108.38195	-59.199631	102.49438
	-13.882291	-121.34704						
0.3721375	-31.089308	-13.615572	-0.5360567	-5.3934937	-63.275784	-86.650681	-68.504791	84.39003
	-67.452545	92.235527						
	-0.53307319	-5.4009404	-31.163401	-10.553578	-58.209572	92.933022	-79.627876	-76.835754
	-71.83387	50.700111						
	-63.242733	-86.363068	-58.195015	92.606377	-14.169495	-123.9591	-68.764465	97.388702
	-82.991631	90.775101						
	-67.962143	86.52549	-76.747108	-99.090805	-68.29319	95.057938	-14.096658	-123.37665
	-58.817192	101.23602						
	-67.526489	88.332573	-73.23674	55.3722	-78.575996	94.292122	-58.829384	101.42892
	-14.069875	-122.75627						
0.384625	-31.070332	-14.206407	-0.5332588	-5.5606332	-63.242023	-84.429779	-67.266068	85.217918
	-67.994789	86.744408						
	-0.53480035	-5.5719471	-31.141813	-10.850777	-57.697453	93.937218	-81.50573	-74.05809
	-74.361755	46.956245						
	-62.56942	-84.344566	-57.72686	92.296463	-14.35805	-125.4017	-68.492073	93.14769
	-79.879219	102.7088						
	-68.549065	87.881584	-78.975464	-78.002541	-68.058205	97.396614	-14.270056	-124.76045
	-58.614536	98.765038						
	-67.329468	90.622787	-72.405121	56.273956	-81.420433	97.698868	-58.461311	100.30509
	-14.248066	-124.14088						
0.3971125	-31.055834	-14.64279	-0.53480393	-5.7372541	-62.128448	-84.133423	-67.672073	86.536407
	-67.474998	91.924561						
	-0.5345338	-5.7466245	-31.127014	-10.648134	-57.458328	91.854706	-80.117195	-96.467224
	-72.721298	48.688492						
	-62.714451	-85.974335	-57.357243	92.119308	-14.535747	-126.85212	-67.725937	92.060455
	-81.202072	87.387749						
	-68.179596	86.449402	-79.490692	-75.447739	-69.662125	95.16507	-14.434191	-126.08945
	-57.951397	99.792336						
	-67.468834	93.684967	-72.384796	52.520592	-79.572388	109.04063	-57.863815	99.849045
