! Device:	HMC7992							
! Description:	Silicon MMIC SP4T Non-Reflective Switch							
! Package:	LP3E - 16 pin 3x3mm QFN plastic package							
! Frequency:	0.1 -  6 GHz							
!								
! Ports:								
! RFC = Port 1								
! RF1 = Port 2								
! RF2 = Port 3								
! RF3 = Port 4								
! RF4 = Port 5								
!								
! State: RF2 Selected								
!								
! Supply Voltage:								
! Vdd = 5 V								
!								
! Control Voltages: 								
! VA  = 5 V								
! VB  = 0 V								
!								
! Data:	Data was collected using a calibrated network analyzer with AFR software.							
!	Fixtures were calculated using AFR and fixturing was applied to collect 							
!	this Deembedded  S Parameter data of HMC7992.							
!								
! Note:	Analog Devices supplies this data as a sample of measured data at the package pin							
!	for this product.  Your particular data for this product may vary.							
!	Data was taken at 25 degrees C.							
!	Analog Devices reserves the right to change this data at anytime.							
!								
# GHz S  dB   R 50								
0.01	-29.314631	-5.2311206	-70.599701	40.698059	-0.4513326	-0.33440453	-79.402382	120.77094
	-80.344742	-71.668121						
	-77.845055	-32.55888	-0.22239001	-10.973484	-80.454536	26.330368	-83.863686	47.309639
	-75.952286	159.8074						
	-0.44887993	-0.41429514	-79.527946	42.316059	-29.387028	-3.2927132	-93.958435	112.29972
	-77.30983	-3.41432						
	-71.428146	-106.38609	-75.84938	165.05658	-72.007088	57.424953	-0.2240119	-10.995895
	-81.171883	87.8209						
	-77.964989	68.598404	-67.15979	-171.97827	-74.475983	-29.717302	-80.124748	107.54711
	-0.22201751	-10.975297						
0.0224875	-29.659281	-6.0669317	-83.146767	-35.72908	-0.4693369	-0.55779272	-85.240379	69.100342
	-81.255119	104.71793						
	-77.614159	22.867256	-0.69141638	-23.653057	-80.933334	48.271465	-86.034256	22.632025
	-100.66278	-87.572617						
	-0.46187499	-0.60775542	-81.652817	76.267792	-29.722828	-5.8879561	-89.477348	22.770603
	-90.369774	68.065697						
	-85.714195	14.865198	-76.922897	19.505833	-78.976158	21.144329	-0.68890887	-23.675859
	-88.090919	-126.61047						
	-79.095329	48.452763	-75.073807	69.11422	-79.470596	81.206512	-92.354164	-0.15714861
	-0.68919754	-23.641432						
0.034975	-30.022463	-6.0830898	-79.21212	26.475039	-0.48114949	-0.76921064	-86.210922	53.070637
	-92.710075	101.63801						
	-77.364365	14.279775	-1.3905947	-34.869881	-75.456596	86.968636	-98.390198	-122.57653
	-93.191231	103.49259						
	-0.47478026	-0.80870515	-79.599091	71.086525	-30.131117	-6.8615112	-87.389351	11.281599
	-81.058556	65.511459						
	-85.823204	121.56245	-94.815697	41.406185	-85.416107	35.519882	-1.3876528	-34.903919
	-87.835342	27.094856						
	-78.609886	29.229048	-97.20488	-104.05039	-85.013611	14.468434	-109.43335	151.34645
	-1.3886644	-34.858662						
0.0474625	-30.373178	-5.5792117	-77.955574	-18.569536	-0.49116212	-0.95715392	-82.229126	82.495407
	-79.547226	43.76651						
	-75.239571	1.9434919	-2.2144103	-44.470848	-75.424561	88.86734	-89.135246	-91.219986
	-86.973228	-2.0033896						
	-0.48464596	-0.98572546	-75.35984	87.279961	-30.405085	-6.1034846	-87.390663	-15.641813
	-77.80751	42.421192						
	-85.065041	79.232101	-87.418304	25.427221	-85.524315	37.527946	-2.2090905	-44.498981
	-94.627357	146.97362						
	-80.586861	60.27829	-108.38071	-69.072197	-82.059669	35.37394	-83.002991	137.42226
	-2.2083094	-44.444885						
0.05995	-30.584879	-5.2328091	-73.300438	1.3591774	-0.49751738	-1.1508598	-91.331245	166.9026
	-79.681274	39.443905						
	-72.292274	-30.825314	-3.0816169	-52.653908	-74.570679	91.481728	-79.261185	80.142174
	-77.022072	94.596832						
	-0.49334845	-1.1652621	-72.331436	100.59657	-30.657425	-4.6318064	-90.932426	-144.91547
	-72.597939	46.502342						
	-80.841911	67.951782	-81.368279	78.286804	-82.456833	12.388865	-3.0788112	-52.675266
	-91.430489	67.101089						
	-73.36779	74.540268	-84.21859	74.819351	-77.208275	72.643532	-86.915962	-124.74915
	-3.0745161	-52.615986						
0.0724375	-30.685108	-4.6020417	-72.809471	-6.3940539	-0.50164342	-1.3407861	-80.279335	107.84996
	-74.146523	26.778675						
	-70.626266	-6.3888736	-3.947094	-59.55619	-70.057861	91.057739	-81.794746	120.99957
	-83.569519	136.56496						
	-0.49712047	-1.3538475	-69.963707	102.22013	-30.794027	-3.8665454	-82.95668	34.03841
	-82.243477	49.181103						
	-89.778183	34.899185	-82.702309	86.229454	-87.097946	22.764446	-3.9413812	-59.652962
	-76.366158	117.03706						
	-81.520103	55.211834	-85.714401	139.3591	-74.601929	44.534836	-78.962006	141.83672
	-3.9386003	-59.549095						
0.084925	-30.803703	-3.7810831	-72.101563	-37.916878	-0.50532097	-1.5363736	-76.707886	107.53035
	-82.705406	32.414349						
	-71.837761	-31.810339	-4.7766623	-65.477013	-68.320335	93.513573	-83.452286	29.3722
	-80.779633	78.426361						
	-0.50134099	-1.5370609	-69.187515	89.938934	-30.848425	-3.0669389	-78.454323	-14.170939
	-76.58905	74.023804						
	-78.492996	75.916534	-82.974266	53.352085	-81.608139	-26.373444	-4.7730498	-65.617706
	-74.498894	149.19293						
	-81.188766	63.310726	-85.184662	29.098549	-79.287636	46.815071	-76.121223	140.8396
	-4.7687745	-65.507545						
0.0974125	-30.832113	-3.8029406	-70.742447	-27.081207	-0.50937152	-1.7089771	-76.080711	95.407951
	-76.085388	9.0531406						
	-70.40667	-31.569841	-5.5639877	-70.659966	-67.935524	94.627129	-92.134453	4.9514661
	-94.937828	-167.15237						
	-0.50410503	-1.7217679	-67.581573	97.418961	-30.94685	-2.380734	-87.132286	-34.810894
	-76.785233	36.328262						
	-77.797035	96.591263	-88.792015	16.033951	-77.015488	-20.816082	-5.5584154	-70.831978
	-72.687233	117.76991						
	-78.594696	48.044018	-81.942429	165.03584	-78.99733	51.176216	-74.406006	129.54723
	-5.5546055	-70.701889						
0.1099	-30.91942	-3.656106	-70.791855	-30.670858	-0.51231641	-1.8986576	-75.84021	101.467
	-79.978836	56.429348						
	-69.722183	-41.360134	-6.3033614	-75.202919	-66.79705	99.172676	-94.156776	112.77431
	-87.508667	93.796982						
	-0.50729364	-1.903193	-66.880905	97.61911	-31.09627	-2.1530118	-79.32959	-13.957996
	-78.088036	53.777534						
	-76.768639	91.973877	-89.803123	178.31616	-81.475235	-23.428026	-6.2921309	-75.393852
	-71.611557	121.73518						
	-77.556984	42.805801	-85.549156	141.01776	-76.78904	56.542301	-71.699707	124.11917
	-6.2874417	-75.251709						
0.1223875	-30.939053	-3.8182166	-69.075859	-37.892902	-0.51490867	-2.0901353	-74.622513	101.30833
	-79.660049	55.510803						
	-68.951073	-48.227097	-6.9897838	-79.258446	-65.439117	92.069038	-89.227737	2.8759027
	-83.357811	103.2684						
	-0.50951666	-2.0919209	-65.41629	96.86602	-31.218372	-2.0792978	-80.462639	-25.868877
	-75.700401	67.12632						
	-74.962669	97.26075	-95.491241	59.229031	-81.386978	-9.239749	-6.9745846	-79.453651
	-70.351135	129.70447						
	-77.715263	39.650215	-89.131004	122.51442	-75.554359	51.964851	-70.773666	126.20691
	-6.9685063	-79.312744						
0.134875	-30.894274	-3.3369269	-68.841324	-46.374084	-0.51771951	-2.2721817	-73.732285	91.20578
	-77.737167	41.760288						
	-68.79332	-50.390636	-7.6257277	-82.936409	-64.198273	91.410988	-92.640587	94.323212
	-85.838531	118.00703						
	-0.51288795	-2.2784734	-64.520096	91.390488	-31.345098	-2.5751832	-80.786324	-40.434357
	-76.158134	55.906467						
	-73.899361	87.598701	-89.998779	23.926991	-81.45369	-45.509171	-7.6085973	-83.125343
	-69.363525	122.65226						
	-77.687187	46.774635	-82.872459	116.97378	-74.365959	59.975338	-69.110855	119.82461
	-7.6010532	-82.965363						
0.1473625	-30.905624	-3.2867706	-68.102234	-49.325527	-0.51871067	-2.4592402	-74.841835	94.703201
	-77.279686	42.891068						
	-67.72879	-56.734966	-8.2185593	-86.284676	-63.852676	91.746117	-89.193115	99.981361
	-80.258774	105.15677						
	-0.51459569	-2.4589388	-63.997074	94.099998	-31.376444	-2.1816871	-81.396828	-49.343777
	-73.381355	55.124176						
	-74.192039	87.871376	-84.609726	62.926376	-81.672012	-42.663498	-8.1975689	-86.490227
	-68.225327	118.2308						
	-77.885971	51.16412	-81.57486	106.77908	-74.587326	61.672573	-68.206696	116.17758
	-8.1884441	-86.306648						
0.15985	-30.987528	-2.9668245	-68.045219	-55.936478	-0.52153957	-2.6428988	-73.250618	87.073982
	-76.743431	50.424461						
	-67.674522	-54.995506	-8.7706375	-89.381165	-62.823997	91.26165	-89.443886	120.75507
	-80.603828	102.62222						
	-0.51717132	-2.6469305	-62.785294	93.394981	-31.265944	-1.6929183	-80.748764	-53.047783
	-73.917969	56.586689						
	-72.48468	89.989761	-88.021629	87.685692	-80.77697	-45.641281	-8.745677	-89.592804
	-66.802345	116.33433						
	-78.233788	49.202312	-78.138084	101.07304	-75.852776	59.35981	-66.785606	119.22553
	-8.7340775	-89.381798						
0.1723375	-30.99987	-2.0437982	-67.372475	-62.476624	-0.52359474	-2.8309212	-72.136253	82.759834
	-78.299744	54.693035						
	-66.842445	-61.165466	-9.2839937	-92.256371	-62.42366	93.572701	-87.282043	110.88462
	-78.307983	108.52241						
	-0.51880652	-2.8343196	-62.345951	91.850464	-31.221447	-1.5485537	-79.810593	-48.230591
	-73.813957	64.329254						
	-72.289497	84.401848	-84.704155	102.06454	-80.131035	-48.268387	-9.2553692	-92.474731
	-66.617882	113.68121						
	-77.704651	63.117668	-79.347191	93.541573	-73.265411	64.272392	-66.477837	114.99944
	-9.242012	-92.238197						
0.184825	-30.967514	-1.8820369	-65.696609	-59.95887	-0.52330595	-3.0123479	-71.914696	92.135239
	-77.46434	57.360748						
	-66.795555	-59.708096	-9.7634115	-94.94416	-61.714336	90.452576	-85.923477	69.937057
	-75.110603	95.97773						
	-0.52079296	-3.0227892	-61.378296	90.809372	-31.2209	-0.67360705	-77.209511	-39.346027
	-74.763252	62.819855						
	-70.823425	92.392761	-83.490494	58.733578	-83.032829	-51.793701	-9.7307692	-95.148323
	-64.948868	110.9078						
	-75.996819	62.870041	-76.403389	91.359489	-71.895782	51.724854	-65.407074	113.09692
	-9.718667	-94.904915						
0.1973125	-30.972029	-2.1014493	-66.182571	-63.958096	-0.52676082	-3.2039435	-72.688683	80.963333
	-77.509438	46.404041						
	-65.70755	-70.830025	-10.211821	-97.477943	-61.062222	93.018295	-97.468201	133.95151
	-80.94648	130.28525						
	-0.51872224	-3.2007053	-61.41254	89.643974	-31.198582	0.12285556	-78.247169	-41.660831
	-73.007736	57.215858						
	-70.602654	79.472786	-83.679214	114.22312	-79.766144	-71.263763	-10.169847	-97.677307
	-64.66671	113.33294						
	-75.016632	40.403202	-80.551826	99.526375	-72.826904	54.189339	-65.165924	109.65504
	-10.159052	-97.414024						
0.2098	-31.001261	-1.6005429	-64.908409	-68.965111	-0.52812982	-3.3966219	-70.479507	78.203094
	-80.305786	68.439781						
	-65.7183	-66.679794	-10.628231	-99.900162	-60.91082	93.571075	-85.780518	113.27192
	-76.93705	106.87201						
	-0.52149582	-3.3899624	-60.449558	90.609802	-31.277853	0.091863796	-78.377289	-69.38031
	-74.932365	67.554443						
	-69.995308	83.034546	-88.5933	79.20488	-78.989143	-66.565407	-10.579762	-100.08124
	-64.470398	105.06726						
	-77.819283	74.769348	-74.416595	93.238396	-74.546127	56.701641	-64.916672	107.06142
	-10.567538	-99.821136						
0.2222875	-30.909122	-1.6772331	-65.157745	-72.165375	-0.52698308	-3.5905557	-70.498009	82.056961
	-76.12516	76.844826						
	-64.814499	-72.804253	-11.017625	-102.2175	-59.943588	91.527954	-85.306664	103.75371
	-76.045258	108.30385						
	-0.52485067	-3.5878489	-59.993053	92.15255	-31.457914	-0.14723592	-77.816772	-93.870621
	-72.901031	54.048588						
	-71.242683	89.417793	-88.977821	80.795837	-81.026619	-71.093597	-10.967068	-102.35163
	-63.390873	112.10418						
	-77.836189	52.333778	-76.485992	97.31234	-70.856964	67.835228	-63.829712	109.59017
	-10.95166	-102.07114						
0.234775	-30.951796	-2.3864398	-65.343323	-69.498352	-0.52876937	-3.7733095	-69.057312	82.171143
	-77.665504	77.334343						
	-64.546547	-71.876328	-11.378329	-104.38517	-59.64534	89.559502	-86.431755	48.549881
	-76.111961	87.173676						
	-0.52416658	-3.7776351	-59.250664	89.282173	-31.423512	0.14798182	-76.375687	-75.370506
	-71.120102	59.172615						
	-69.157913	86.978333	-84.815544	63.570763	-77.182823	-71.80571	-11.324125	-104.49415
	-63.200104	111.24915						
	-76.948418	83.105026	-75.50425	96.80468	-72.345673	52.908337	-62.75589	112.2149
	-11.305222	-104.20272						
0.2472625	-30.972151	-2.1513278	-64.048622	-76.00441	-0.52991211	-3.9692121	-69.547348	81.997696
	-76.239815	95.379509						
	-64.310417	-75.57177	-11.710995	-106.46973	-59.217564	90.279404	-84.689117	111.20496
	-74.138374	102.81817						
	-0.52535337	-3.9674115	-59.144119	91.96244	-31.498785	-1.0471823	-75.45414	-75.218712
	-72.149635	59.215595						
	-69.360542	78.602196	-87.342506	82.477325	-78.607819	-74.79789	-11.6586	-106.58537
	-62.199657	111.5303						
	-75.172928	78.006042	-75.532486	105.94253	-71.634529	70.782585	-62.243828	108.68352
	-11.63796	-106.24104						
0.25975	-31.119232	-1.6741536	-63.957104	-78.284592	-0.5331744	-4.1486678	-68.739601	86.364113
	-75.103676	82.37072						
	-63.267521	-72.585205	-12.029434	-108.44762	-58.57349	90.644646	-84.962318	135.02951
	-73.439972	91.858589						
	-0.52532542	-4.1586928	-58.599323	88.111412	-31.307854	-1.3943167	-75.198883	-72.702309
	-69.388626	49.068535						
	-69.437256	77.143494	-91.721962	96.187592	-74.47123	-82.1651	-11.972372	-108.57642
	-61.509983	104.86349						
	-75.901756	80.576683	-74.815521	94.713753	-71.945114	58.665173	-61.970802	105.78331
	-11.951493	-108.19852						
0.2722375	-31.097723	-2.1334643	-63.603539	-75.359375	-0.53218049	-4.3307247	-68.071335	85.930977
	-74.371155	97.913254						
	-64.047211	-73.915398	-12.324168	-110.35915	-58.367134	88.04763	-80.22805	131.43785
	-72.958984	93.783928						
	-0.52766693	-4.3326368	-58.211117	87.607246	-31.286558	-1.1550295	-75.190979	-51.738132
	-72.998138	67.856682						
	-68.67395	77.350891	-77.206146	118.76508	-75.88871	-82.549225	-12.270069	-110.46316
	-61.822887	106.59601						
	-77.591797	79.210953	-73.694344	105.66832	-71.31131	59.679012	-61.749352	102.94404
	-12.24934	-110.06726						
0.284725	-31.257023	-2.3041434	-63.391212	-79.111893	-0.53489959	-4.5175962	-67.787621	78.870758
	-76.176796	83.640854						
	-63.293106	-76.345451	-12.61365	-112.17194	-58.027271	89.744431	-85.105148	56.241558
	-74.457184	88.74675						
	-0.52521861	-4.5237927	-57.836384	89.049805	-31.13806	0.077061705	-76.369461	-99.574936
	-69.97007	64.321213						
	-68.659721	86.948402	-91.300743	23.504005	-76.531715	-82.106262	-12.537982	-112.2493
	-61.329487	104.16502						
	-74.706444	83.850563	-73.306915	110.89552	-72.110992	71.123665	-61.426735	106.24054
	-12.521929	-111.83385						
0.2972125	-31.222786	-2.3050451	-62.819263	-82.926826	-0.53414756	-4.7164545	-67.383209	88.003975
	-71.452522	84.338951						
	-63.549541	-81.038521	-12.88386	-113.97598	-58.187523	89.594826	-85.86985	108.50777
	-73.834869	96.65963						
	-0.52927798	-4.7200923	-57.392685	90.397675	-31.098843	-0.11471335	-76.830032	-80.486153
	-70.7248	62.077785						
	-68.189613	88.776894	-85.298149	99.674217	-74.762192	-79.13372	-12.802147	-113.99052
	-60.362057	104.56861						
	-73.303047	82.535797	-73.769073	92.781494	-70.222542	64.163338	-60.329807	105.8131
	-12.786983	-113.55856						
0.3097	-31.152573	-2.8469357	-61.883881	-82.494873	-0.53429866	-4.8963966	-67.559013	81.328819
	-72.422958	80.462822						
	-62.86779	-85.854378	-13.13039	-115.71417	-57.119774	87.613808	-78.625626	98.99028
	-72.501755	96.758972						
	-0.53057086	-4.9124722	-57.437645	87.961052	-31.220673	0.10581667	-75.520775	-80.44355
	-71.066612	56.43512						
	-67.519547	79.020348	-83.511688	96.172707	-75.108879	-100.35281	-13.046727	-115.64868
	-60.816982	102.23092						
	-73.472748	75.87587	-74.369766	104.72216	-69.97319	65.708351	-60.57275	105.26443
	-13.030336	-115.22742						
0.3221875	-31.196613	-3.7685535	-62.299618	-84.057671	-0.53706253	-5.0880227	-66.947197	78.319916
	-72.441277	80.594994						
	-62.165775	-80.017677	-13.365224	-117.40004	-56.680107	89.60601	-82.237907	88.580681
	-71.441208	92.287529						
	-0.53162879	-5.1024318	-56.995884	90.018143	-31.276859	0.52700788	-76.078842	-89.199814
	-70.895004	51.818668						
	-67.548203	82.951851	-82.854851	122.88045	-75.723381	-77.923645	-13.285694	-117.26409
	-59.988533	103.68494						
	-71.654091	79.622627	-70.493011	101.84982	-70.834435	59.618263	-59.754795	101.90264
	-13.262381	-116.83779						
0.334675	-31.193583	-3.1996522	-60.861324	-85.34388	-0.5367797	-5.2805433	-67.067245	86.718178
	-74.599487	106.96272						
	-62.142033	-83.628723	-13.579192	-119.03393	-56.3312	91.531555	-81.267647	85.227119
	-72.981651	93.538231						
	-0.53385657	-5.2791281	-56.595509	89.676178	-31.249458	-0.59052211	-75.166451	-86.835358
	-69.64576	64.432106						
	-67.063583	89.44368	-83.516937	80.037445	-77.50367	-86.50972	-13.505245	-118.84427
	-59.748123	101.10758						
	-72.103493	83.269577	-74.431778	94.377296	-69.684692	72.63472	-59.645596	102.10345
	-13.476067	-118.38088						
0.3471625	-31.145071	-3.4348044	-61.627022	-85.833267	-0.53712738	-5.4746504	-66.589447	80.661415
	-71.300262	84.945068						
	-61.325794	-86.936935	-13.781531	-120.58398	-56.044147	87.750618	-83.356514	97.445023
	-73.032227	104.40031						
	-0.53358233	-5.4761243	-56.311481	88.774117	-31.374559	-1.3961447	-75.678627	-88.624451
	-70.528145	69.074913						
	-66.537834	88.111282	-87.148354	98.672646	-76.710701	-90.964737	-13.716503	-120.40535
	-59.450306	101.03617						
	-71.827988	90.548569	-72.657265	106.97728	-71.203201	61.976528	-59.359005	100.46241
	-13.685094	-119.89114						
0.35965	-31.126345	-3.0313678	-60.860329	-83.948166	-0.53825295	-5.6592135	-66.161827	83.521523
	-71.255341	94.231285						
	-61.795475	-85.947891	-13.971375	-122.04234	-55.762463	90.11261	-85.114037	102.73422
	-72.540947	94.626953						
	-0.53286248	-5.6644645	-55.885612	88.91552	-31.303623	-1.3739666	-77.172813	-97.231026
	-69.315735	63.339043						
	-66.354767	85.711632	-84.063004	112.91387	-79.29377	-101.17015	-13.904385	-121.93228
	-59.033932	101.82057						
	-71.166069	99.468864	-72.090553	86.767128	-69.069366	61.138199	-58.946087	102.25359
	-13.87583	-121.34959						
0.3721375	-31.161968	-3.2789059	-60.887596	-86.957405	-0.53891486	-5.8408899	-65.705025	79.527962
	-71.177795	94.803688						
	-60.68594	-86.552574	-14.156053	-123.44961	-55.552998	88.753365	-86.304909	99.19268
	-71.702415	99.536972						
	-0.53425229	-5.8511434	-55.705936	86.219994	-31.247768	-1.0997211	-73.443932	-90.865242
	-68.689346	63.750153						
	-66.121559	88.915039	-81.383095	97.938721	-74.056892	-78.904091	-14.082826	-123.36042
	-58.633217	100.8277						
	-71.077095	92.153435	-72.272568	100.76189	-69.62101	55.006275	-58.5163	101.04517
	-14.060671	-122.75444						
0.384625	-31.137802	-3.202343	-60.784317	-88.674004	-0.53787881	-6.0316529	-65.307213	83.847542
	-71.668945	96.813728						
	-60.528854	-85.77684	-14.340178	-124.85226	-55.247387	87.651917	-81.242172	111.93778
	-71.657768	101.34016						
	-0.53440094	-6.0466552	-55.471218	88.760147	-31.211708	-0.63776946	-74.305717	-81.305992
	-70.529968	56.906723						
	-65.770523	85.45385	-84.539574	81.521622	-73.621246	-97.590927	-14.255867	-124.74073
	-58.191254	99.67099						
	-71.116722	101.99525	-71.826759	90.268692	-69.241814	63.545559	-58.331173	101.80286
	-14.236901	-124.13146						
0.3971125	-31.051786	-3.5828288	-60.424053	-89.397232	-0.53960335	-6.2160034	-65.331566	86.038231
	-71.004745	97.51355						
	-60.050274	-89.89669	-14.514505	-126.22933	-55.055645	88.997589	-83.114052	130.67245
	-70.842636	99.719864						
	-0.5363549	-6.2252212	-55.03957	87.405701	-31.234388	-0.065969817	-75.522743	-87.80899
	-68.505112	63.336933						
	-65.603081	83.881989	-84.516655	85.593155	-74.466545	-92.865082	-14.419825	-126.09249
	-58.033699	99.312317						
	-71.573975	99.678375	-71.140121	89.649345	-68.730919	62.62714	-58.037365	101.28156
