! Device:	HMC7992							
! Description:	Silicon MMIC SP4T Non-Reflective Switch							
! Package:	LP3E - 16 pin 3x3mm QFN plastic package							
! Frequency:	0.1 -  6 GHz							
!								
! Ports:								
! RFC = Port 1								
! RF1 = Port 2								
! RF2 = Port 3								
! RF3 = Port 4								
! RF4 = Port 5								
!								
! State: RF4 Selected								
!								
! Supply Voltage:								
! Vdd = 5 V								
!								
! Control Voltages: 								
! VA  = 5 V								
! VB  = 5 V								
!								
! Data:	Data was collected using a calibrated network analyzer with AFR software.							
!	Fixtures were calculated using AFR and fixturing was applied to collect 							
!	this Deembedded  S Parameter data of HMC7992.							
!								
! Note:	Analog Devices supplies this data as a sample of measured data at the package pin							
!	for this product.  Your particular data for this product may vary.							
!	Data was taken at 25 degrees C.							
!	Analog Devices reserves the right to change this data at anytime.							
!								
# GHz S  dB   R 50								
0.01	-30.765469	-5.6134391	-79.457916	-56.433079	-83.411438	-39.56562	-77.13887	-37.662632
	-0.44767469	-0.31861123						
	-83.615822	137.39792	-0.23116858	-11.026509	-79.188766	-77.018127	-87.102417	104.28678
	-72.770363	133.87431						
	-77.502571	-135.56195	-88.133698	-99.262947	-0.22619385	-10.978564	-73.244186	105.92853
	-87.223358	119.39671						
	-75.311752	-111.85656	-72.479622	-152.90004	-76.974655	57.761734	-0.22899961	-11.005253
	-86.590569	150.89331						
	-0.45069849	-0.41114333	-77.916328	-4.7129383	-75.154594	-149.17668	-80.219528	84.90657
	-29.399288	-4.111465						
0.0224875	-31.036793	-5.1804113	-92.936676	-43.383892	-80.592705	-83.407654	-79.851486	31.320841
	-0.46144491	-0.51501018						
	-77.685516	67.262749	-0.70423257	-23.657045	-79.253082	60.621296	-80.766106	82.102234
	-86.018669	105.97436						
	-84.289093	-166.73834	-95.309929	-145.50534	-0.70109755	-23.678944	-82.438042	59.320957
	-86.873947	-171.48672						
	-78.621246	101.89567	-85.198738	142.94786	-87.157578	-44.32066	-0.70090777	-23.672764
	-85.787445	83.713699						
	-0.46393892	-0.59559166	-79.031898	57.767834	-82.177788	2.2618976	-82.354736	10.968407
	-29.83136	-6.8571486						
0.034975	-31.124832	-5.3878021	-85.216805	74.49173	-85.326904	-35.844112	-82.575203	3.7334306
	-0.47545153	-0.71844763						
	-78.96315	41.108299	-1.3984807	-34.855404	-84.237831	59.639339	-95.852158	-167.39763
	-80.16568	36.693722						
	-80.729774	69.51075	-87.587791	-76.307793	-1.3988448	-34.858807	-91.429756	-92.200737
	-99.370209	140.24889						
	-78.715004	-8.0782118	-88.553223	33.347118	-88.52195	152.54979	-1.3939648	-34.888424
	-90.277679	135.92209						
	-0.4745411	-0.75622773	-84.228149	39.440136	-116.8555	89.922188	-82.090088	68.338295
	-30.183973	-8.1438208						
0.0474625	-31.261089	-5.3588963	-81.004372	30.243078	-79.951546	76.155449	-78.066956	7.6236539
	-0.4852379	-0.87162048						
	-80.108192	33.449837	-2.2172022	-44.456135	-84.71093	155.93475	-101.75257	-21.792673
	-80.73394	43.260918						
	-97.650787	150.85065	-86.359688	172.65714	-2.217628	-44.475834	-83.653419	146.09741
	-86.332069	30.869331						
	-77.468605	1.9583008	-84.957359	38.926708	-92.762741	169.78511	-2.2114663	-44.492107
	-77.95208	77.110565						
	-0.4847298	-0.90835816	-80.154594	56.416313	-88.474442	7.2134857	-76.772812	70.391457
	-30.463371	-8.057621						
0.05995	-31.369276	-5.3183441	-79.990318	84.890015	-80.723152	60.191364	-75.796951	-16.03916
	-0.49275506	-1.0600327						
	-80.596275	37.861393	-3.0817363	-52.662319	-90.14994	78.977364	-76.779854	68.334572
	-79.642952	36.734276						
	-90.206879	33.442539	-80.569641	96.475121	-3.0856328	-52.669968	-80.721748	121.70844
	-91.289864	-4.8858094						
	-77.506493	-37.342026	-81.553818	44.533695	-81.3582	-154.48924	-3.0758367	-52.692398
	-74.190331	113.36537						
	-0.49154925	-1.0540321	-76.864059	36.27269	-81.791672	66.225075	-74.079224	118.08984
	-30.697105	-7.387537						
0.0724375	-31.416157	-5.6916733	-79.403183	49.863487	-92.166008	90.848152	-74.384216	-41.286839
	-0.49605611	-1.2083076						
	-79.431366	58.257458	-3.9435394	-59.588387	-77.864082	129.85133	-83.448418	95.822136
	-74.270271	53.338596						
	-86.009506	61.423592	-82.119354	132.84204	-3.9461877	-59.62495	-81.257324	161.80028
	-83.441902	58.647675						
	-77.287117	-16.731621	-84.568542	85.389442	-84.157852	93.643036	-3.9382834	-59.677521
	-73.61673	100.96082						
	-0.4961355	-1.2257029	-81.014725	69.790489	-85.964966	36.308628	-75.440109	104.65535
	-30.851429	-7.6766186						
0.084925	-31.445759	-5.6461258	-79.106346	19.557211	-78.980339	72.391457	-77.644516	-37.260395
	-0.50050253	-1.3738698						
	-76.794807	43.567249	-4.7728224	-65.529198	-75.81266	137.36942	-91.181038	158.8167
	-83.818871	32.142815						
	-81.407486	39.390495	-73.049263	122.51746	-4.7820954	-65.593254	-82.829842	116.60751
	-87.573975	83.442909						
	-72.763405	-30.162716	-82.141922	120.62924	-85.035385	132.81941	-4.7675095	-65.665718
	-72.052521	102.4816						
	-0.49933013	-1.3815776	-76.546974	50.497845	-83.975235	65.249115	-70.934021	98.625443
	-30.971373	-7.6676397						
0.0974125	-31.504675	-6.0132327	-79.565453	26.419788	-82.699394	61.352047	-75.348595	-36.700878
	-0.50539094	-1.5283163						
	-78.087967	45.976749	-5.557601	-70.72879	-74.172958	130.82698	-85.881096	-82.1763
	-79.515572	40.267975						
	-89.173409	47.713036	-74.787666	137.78824	-5.5703454	-70.825684	-87.190178	123.04047
	-80.83638	-25.638659						
	-74.44175	-26.953077	-84.711166	-115.95205	-84.387985	107.09187	-5.5503554	-70.892593
	-71.533379	78.933945						
	-0.50389946	-1.5493912	-79.232384	48.058266	-86.946007	-35.272728	-72.459236	90.630692
	-31.036612	-8.0997972						
0.1099	-31.520082	-6.301343	-77.634819	43.845802	-77.419029	75.568779	-73.676666	-52.694111
	-0.5076471	-1.6904297						
	-79.69516	37.936501	-6.2941198	-75.285667	-71.903412	126.42553	-95.854523	-147.68704
	-77.929398	36.438385						
	-81.112549	56.380638	-71.561913	121.27356	-6.3076291	-75.437752	-80.451736	123.7085
	-88.722481	43.96909						
	-73.202744	-39.945347	-90.576584	63.029438	-78.640221	136.22768	-6.2812948	-75.473984
	-69.288643	98.207413						
	-0.50520051	-1.7098442	-77.637505	48.296028	-85.702583	44.097832	-68.913681	98.082787
	-31.040268	-8.6730404						
0.1223875	-31.495806	-6.7266431	-77.644302	55.316044	-81.04715	74.126228	-71.875923	-43.784782
	-0.5097416	-1.8579475						
	-79.065887	30.304716	-6.979012	-79.347374	-70.718323	121.51637	-88.577118	35.006393
	-77.809204	51.902733						
	-79.892502	94.498001	-70.709885	117.29887	-6.9917202	-79.582802	-82.903343	147.4493
	-86.160645	3.9980245						
	-72.929642	-48.08284	-94.74527	-29.527735	-79.237961	132.62527	-6.9613733	-79.54612
	-68.36245	94.454391						
	-0.50817245	-1.8719521	-78.837471	39.04388	-85.182365	-3.6139085	-68.495033	90.358871
	-31.097752	-9.090003						
0.134875	-31.487127	-6.9988465	-77.873688	48.690475	-79.878876	94.509346	-72.209206	-49.180607
	-0.51323074	-2.019371						
	-77.600159	46.029037	-7.613656	-83.042046	-69.305313	118.87585	-105.696	-17.262938
	-77.276039	55.560921						
	-77.43692	71.903854	-69.262756	119.48726	-7.623477	-83.329735	-81.266922	127.75969
	-89.153114	3.0465322						
	-72.532288	-46.749905	-85.485764	67.0802	-78.873245	129.34666	-7.5939922	-83.232101
	-67.297035	95.484215						
	-0.51025802	-2.0332088	-76.816704	53.199829	-83.883644	-20.504234	-67.24733	95.602364
	-31.12578	-9.8066711						
0.1473625	-31.438528	-7.2244201	-77.168457	50.576359	-78.158203	80.02256	-71.466377	-50.152946
	-0.51487762	-2.1794837						
	-78.369865	48.863907	-8.2052336	-86.412231	-67.884232	115.22335	-87.540009	49.435524
	-76.081657	55.193962						
	-77.090233	73.701744	-68.069206	116.14606	-8.2094297	-86.715561	-77.683372	128.97797
	-87.895576	-2.8887362						
	-71.177795	-49.950729	-93.843735	63.905247	-75.690765	116.40634	-8.1820612	-86.61557
	-66.482712	98.424835						
	-0.51200002	-2.193758	-75.324203	48.882294	-88.924606	-7.575562	-66.282974	99.47377
	-31.171549	-9.5579882						
0.15985	-31.448004	-7.3232946	-76.071945	56.864231	-75.515762	82.268272	-70.780106	-54.95826
	-0.51657671	-2.3466694						
	-79.27858	56.197685	-8.7552118	-89.524971	-66.842361	118.40633	-87.253342	114.39351
	-76.293854	60.494453						
	-77.114426	71.706604	-67.2519	116.92945	-8.7561197	-89.814133	-75.515686	121.57186
	-95.074234	-33.966339						
	-70.780487	-56.947281	-94.434334	66.749863	-76.231819	121.63036	-8.7292433	-89.734398
	-65.484489	96.646271						
	-0.51419234	-2.3556435	-76.324959	57.701454	-86.54911	32.29179	-65.315468	96.327408
	-31.130463	-9.504694						
0.1723375	-31.448288	-7.4338779	-76.581619	44.62569	-75.888863	82.025795	-70.592003	-59.475807
	-0.51720154	-2.5079784						
	-76.753838	60.60841	-9.2676888	-92.41214	-66.354874	114.34573	-85.185684	94.014069
	-76.339401	57.535328						
	-77.591339	84.261635	-66.0681	116.4464	-9.2689323	-92.699532	-75.725792	117.79185
	-88.756233	4.6923952						
	-69.885361	-62.339725	-86.014938	70.254875	-76.029144	123.24499	-9.2356415	-92.62883
	-64.94342	93.898323						
	-0.51515681	-2.5200443	-75.720406	58.917351	-86.191986	32.458858	-64.997337	96.329651
	-31.115398	-9.890892						
0.184825	-31.463825	-7.620882	-77.51931	33.16787	-73.408508	74.533333	-69.812363	-59.818169
	-0.51852983	-2.6758571						
	-77.367065	44.366371	-9.7450294	-95.1194	-65.109993	113.23901	-87.026268	94.788795
	-74.709831	60.112873						
	-76.033211	83.815277	-64.88649	113.52175	-9.748312	-95.40229	-77.411598	104.82072
	-86.382805	39.158134						
	-70.197563	-58.026684	-84.309883	56.285736	-76.993881	119.54679	-9.7065639	-95.32756
	-64.400887	95.920197						
	-0.51665497	-2.6843927	-76.671524	53.145973	-85.610916	6.4394493	-63.860363	96.760979
	-31.170176	-10.058887						
0.1973125	-31.467665	-8.003129	-77.598839	58.164913	-74.586906	74.33033	-68.542213	-59.118397
	-0.51949602	-2.832855						
	-76.898155	68.928757	-10.190239	-97.668587	-65.082512	111.01751	-90.285454	108.24797
	-74.829971	45.877625						
	-72.994316	85.30751	-64.951782	113.12623	-10.192637	-97.99054	-76.562996	107.05637
	-88.78981	4.5802541						
	-68.235794	-64.538109	-90.558914	55.694126	-76.779976	119.06296	-10.145902	-97.847855
	-63.636963	89.526497						
	-0.51787293	-2.8478312	-75.388451	51.714439	-83.726257	-35.391354	-63.037292	96.104118
	-31.138233	-9.9921083						
0.2098	-31.494766	-8.4603577	-78.140823	65.35305	-72.804604	81.038841	-68.170433	-62.978096
	-0.51951766	-3.0022213						
	-73.778038	67.314636	-10.60455	-100.07697	-64.17382	111.45209	-88.003479	45.885559
	-75.178642	56.7267						
	-76.043327	90.762581	-64.544945	108.54753	-10.609585	-100.46461	-74.514305	125.1853
	-84.391724	-41.37714						
	-67.878136	-72.317757	-87.389061	106.02726	-74.754402	103.96521	-10.552273	-100.25716
	-62.886982	95.056618						
	-0.51956183	-3.0243435	-73.578903	66.793182	-85.67775	23.142471	-63.089283	96.79982
	-31.110405	-10.813542						
0.2222875	-31.504107	-8.8973017	-73.938919	70.810989	-75.918488	79.229912	-68.440491	-68.769203
	-0.52181476	-3.1693597						
	-77.252014	57.294338	-10.992229	-102.40664	-64.093414	109.75194	-84.720108	70.447914
	-73.66291	54.725681						
	-73.843964	85.32531	-63.722813	107.11494	-10.991205	-102.83495	-74.730164	97.884682
	-89.093956	-97.552055						
	-68.55426	-64.983681	-85.249641	72.441856	-73.911522	98.396385	-10.938307	-102.53231
	-62.45742	98.097847						
	-0.52059996	-3.1909544	-74.517044	64.423149	-84.284592	-97.436531	-62.517082	97.981689
	-31.17108	-11.451768						
0.234775	-31.484493	-9.4075212	-75.111389	67.864204	-74.071022	80.071136	-67.107315	-71.251732
	-0.52179891	-3.3433843						
	-77.016258	76.214928	-11.348994	-104.58757	-63.308376	107.9449	-87.760567	103.55016
	-72.684174	60.846394						
	-74.167778	82.339546	-63.091068	108.69956	-11.345332	-105.03189	-73.481453	107.81915
	-88.07431	-68.068932						
	-68.321091	-71.158859	-82.03627	80.53241	-72.944786	106.82726	-11.29326	-104.69424
	-62.082031	96.613373						
	-0.52203888	-3.3520951	-72.745277	68.944618	-93.123253	-118.60744	-62.178848	92.845634
	-31.145981	-11.405336						
0.2472625	-31.476439	-9.8285036	-74.873848	70.588295	-72.307457	77.642578	-67.70903	-75.071983
	-0.52330822	-3.5161514						
	-75.88121	54.458736	-11.682055	-106.6687	-62.069397	107.09703	-85.342506	128.18211
	-76.276695	52.535519						
	-71.964355	81.303627	-62.62347	108.50546	-11.673734	-107.12732	-72.592972	103.78509
	-97.342957	-37.667747						
	-67.608528	-75.740234	-81.079994	83.090019	-73.584526	97.8619	-11.627405	-106.78156
	-61.69529	98.187531						
	-0.52169317	-3.5235891	-74.245438	60.883331	-87.236786	-91.322983	-61.93795	95.606964
	-31.181568	-12.691195						
0.25975	-31.465298	-10.12103	-72.842049	71.372383	-75.77285	63.090275	-66.879082	-66.28231
	-0.52513981	-3.6828475						
	-73.907227	73.450958	-12.003007	-108.67368	-62.065929	109.27657	-88.000557	68.259109
	-72.924461	59.530579						
	-73.65786	78.313454	-61.771294	107.21875	-11.986254	-109.07777	-71.341858	112.64587
	-92.303223	104.8139						
	-68.829933	-73.094154	-84.807343	102.60184	-73.645996	90.805916	-11.939281	-108.76791
	-61.157661	97.32061						
	-0.52145708	-3.6939337	-76.188599	42.498051	-90.782463	59.485981	-61.460052	95.150795
	-31.084389	-13.028624						
0.2722375	-31.461853	-10.745449	-73.719864	75.774025	-71.419334	83.437912	-67.419426	-76.29174
	-0.52696776	-3.8309658						
	-74.143433	62.919613	-12.294783	-110.58668	-61.527195	106.0935	-87.639198	60.456142
	-75.212685	61.084957						
	-71.929901	73.906616	-61.799442	107.26537	-12.285607	-110.94125	-71.883614	103.26971
	-82.7575	-90.418503						
	-65.8228	-74.640381	-82.37751	131.10274	-72.909744	110.05322	-12.232404	-110.70332
	-61.191994	93.978195						
	-0.5238623	-3.8479528	-71.434662	72.073463	-87.936806	-99.641495	-61.098488	95.540672
	-31.139008	-13.398446						
0.284725	-31.495495	-11.457343	-75.78611	73.418427	-71.747658	85.519257	-65.484108	-76.560875
	-0.52602065	-3.9966049						
	-72.824936	71.954681	-12.577633	-112.39839	-61.189827	105.64905	-78.404991	54.977154
	-74.633896	62.044476						
	-72.226151	78.132729	-60.608852	109.07468	-12.577308	-112.7712	-69.392799	104.46088
	-83.67688	44.841125						
	-65.735626	-70.574249	-83.150375	78.894745	-71.159164	105.27509	-12.502389	-112.48753
	-60.211815	93.537262						
	-0.52450007	-4.0159173	-73.100136	64.677948	-82.511154	-27.485258	-60.94862	93.05336
	-31.008863	-13.548813						
0.2972125	-31.475565	-12.114268	-71.769089	67.974846	-71.605659	78.276772	-65.956551	-85.030807
	-0.52704656	-4.1699944						
	-72.275764	67.562935	-12.846696	-114.21173	-60.613831	102.21953	-84.825386	169.25291
	-71.520561	59.960442						
	-72.070122	86.63652	-60.97184	108.70327	-12.846771	-114.58946	-69.662315	100.09209
	-92.152832	8.4244537						
	-65.949852	-76.340881	-87.366646	149.25807	-71.396721	102.4546	-12.76367	-114.20377
	-60.300991	95.617203						
	-0.52330637	-4.1811805	-76.055923	73.681145	-82.697479	-68.324203	-60.17038	90.507309
	-30.947412	-14.279763						
0.3097	-31.468407	-12.709739	-73.007019	63.653683	-71.478149	72.754532	-65.420212	-78.565666
	-0.52981436	-4.3500023						
	-73.217102	70.550186	-13.090734	-115.93399	-60.309242	100.51044	-81.061707	81.322594
	-73.498566	57.951958						
	-72.112411	79.438515	-60.398792	103.79472	-13.098693	-116.38985	-70.401855	103.83957
	-107.13586	-84.292488						
	-65.760223	-82.984001	-85.760384	115.91154	-70.268501	107.82593	-13.005472	-115.86222
	-60.548923	94.581947						
	-0.52495223	-4.3470254	-76.566963	70.724831	-93.644455	-48.780758	-59.789902	93.944473
	-30.97518	-15.167398						
0.3221875	-31.458536	-13.652576	-70.756042	72.852676	-70.81134	93.190765	-64.576767	-82.935005
	-0.52863348	-4.5067196						
	-72.161346	83.598137	-13.324129	-117.62212	-60.063488	102.36605	-92.060974	81.285767
	-72.214867	72.511246						
	-71.527702	85.023773	-59.995468	104.2948	-13.330053	-118.14304	-70.515892	110.31023
	-87.894096	0.72905409						
	-64.960197	-76.458458	-84.133507	152.07359	-71.976265	95.947067	-13.24316	-117.48724
	-59.4375	93.847939						
	-0.52569926	-4.5180779	-73.56778	67.764755	-85.714844	-101.57568	-59.471512	92.199417
	-30.913157	-15.035529						
0.334675	-31.388239	-14.328216	-72.349342	67.421097	-70.213005	83.958206	-64.438469	-79.407326
	-0.52838284	-4.6727209						
	-73.6194	80.141052	-13.536695	-119.26257	-59.371624	101.24718	-82.044342	90.742493
	-73.319679	67.751289						
	-70.450996	79.444771	-59.723457	103.17802	-13.534734	-119.76658	-70.218834	101.38531
	-85.590622	-39.393486						
	-64.644394	-82.447151	-88.016258	121.91096	-69.891289	99.580292	-13.460424	-119.06318
	-59.400806	89.730911						
	-0.52626383	-4.6822042	-71.851234	63.810749	-78.062027	-55.42115	-59.229351	90.196739
	-30.808781	-16.268681						
0.3471625	-31.355288	-14.879202	-72.895798	81.943459	-71.049118	75.781593	-64.68956	-81.39875
	-0.5308181	-4.84337						
	-71.033653	87.082146	-13.736857	-120.81847	-58.928944	99.55896	-82.973755	113.75703
	-71.752571	66.334709						
	-72.253555	80.297066	-59.142948	101.42702	-13.731758	-121.3227	-69.495926	96.733841
	-80.059227	-35.092808						
	-65.053131	-83.038437	-84.191704	103.41591	-70.095413	99.34021	-13.668515	-120.64754
	-59.386597	92.523926						
	-0.52743542	-4.8533611	-72.8862	68.440292	-79.201836	-75.99675	-58.9468	93.076065
	-30.881098	-16.832245						
0.35965	-31.292646	-15.326074	-72.668892	84.050682	-70.634628	79.541298	-65.136833	-80.696938
	-0.52923203	-5.0157056						
	-72.782173	84.458992	-13.927875	-122.29874	-58.736347	102.5899	-83.842834	47.43837
	-72.161743	54.074436						
	-70.962425	85.780548	-58.920422	99.445671	-13.922844	-122.77861	-68.167519	91.226212
	-82.908737	-11.675575						
	-64.108871	-85.656799	-81.780357	98.619751	-69.822723	92.123932	-13.854798	-122.15687
	-58.732723	89.652657						
	-0.52857298	-5.0162091	-71.277161	66.555191	-85.361427	-6.9097834	-58.497559	92.615318
	-30.905394	-17.234484						
0.3721375	-31.265276	-16.03511	-72.935669	84.39547	-69.967682	79.671738	-63.534924	-84.435478
	-0.53164285	-5.1702175						
	-70.374199	84.902298	-14.111465	-123.72234	-58.565365	101.50212	-93.925293	138.9313
	-71.44915	66.305412						
	-69.888916	81.94899	-58.652031	102.65868	-14.113545	-124.24236	-68.637932	91.651634
	-83.116959	-64.20211						
	-63.847786	-86.535576	-83.852821	113.64024	-68.448174	97.925003	-14.037157	-123.60618
	-58.373154	94.718712						
	-0.52983832	-5.181107	-71.621964	65.197128	-81.099091	-46.018692	-58.667217	93.095612
	-30.892284	-17.444201						
0.384625	-31.224737	-16.754045	-70.648697	84.236328	-68.846413	83.075119	-64.088181	-86.8172
	-0.53009737	-5.3419075						
	-71.558632	82.495132	-14.28772	-125.11877	-58.11964	100.66574	-83.015358	99.775414
	-72.012543	66.62587						
	-69.699425	83.744934	-58.339439	100.39625	-14.299493	-125.68091	-69.037758	94.33873
	-95.820076	-23.75449						
	-64.205864	-85.065781	-80.907089	78.433853	-68.630211	98.052498	-14.203825	-124.98663
	-57.989639	93.835602						
	-0.52838612	-5.353415	-70.650444	57.139668	-90.038963	-109.94331	-58.095371	92.812996
	-30.894152	-17.958048						
0.3971125	-31.156412	-17.268843	-71.254417	77.875603	-70.154594	82.285934	-63.551716	-87.927513
	-0.53296983	-5.5018063						
	-71.350655	86.853798	-14.4632	-126.47542	-57.981667	100.57068	-81.951607	95.865952
	-71.452599	63.918728						
	-69.895576	79.961441	-58.025642	100.22546	-14.475905	-127.11462	-68.567116	95.523888
	-83.770523	-79.246025						
	-63.202206	-85.327545	-82.032593	87.265472	-68.216202	91.649529	-14.367939	-126.33333
	-57.774628	93.189255						
	-0.53045326	-5.5144844	-71.073593	70.485611	-82.896019	-72.263428	-57.787052	92.73156
	-30.906759	-18.441437						
